 time            v(VBUS)         v(V1)          
 1.00000000e-09  2.51999998e+01  2.52000000e+01 
 2.00000000e-09  2.51999998e+01  2.52000000e+01 
 4.00000000e-09  2.51999998e+01  2.52000000e+01 
 8.00000000e-09  2.51999998e+01  2.52000000e+01 
 1.60000000e-08  2.51999998e+01  2.52000000e+01 
 3.20000000e-08  2.51999998e+01  2.52000000e+01 
 6.40000000e-08  2.51999998e+01  2.52000000e+01 
 1.00000000e-07  2.51999998e+01  2.52000000e+01 
 1.06400000e-07  2.51999998e+01  2.52000000e+01 
 1.19200000e-07  2.51999998e+01  2.52000000e+01 
 1.44800000e-07  2.51999998e+01  2.52000000e+01 
 1.96000000e-07  2.51999998e+01  2.52000000e+01 
 2.96000000e-07  2.51999998e+01  2.52000000e+01 
 3.96000000e-07  2.51999998e+01  2.52000000e+01 
 4.96000000e-07  2.51999998e+01  2.52000000e+01 
 5.96000000e-07  2.51999998e+01  2.52000000e+01 
 6.96000000e-07  2.51999998e+01  2.52000000e+01 
 7.96000000e-07  2.51999998e+01  2.52000000e+01 
 8.96000000e-07  2.51999998e+01  2.52000000e+01 
 9.96000000e-07  2.51999998e+01  2.52000000e+01 
 1.09600000e-06  2.51999998e+01  2.52000000e+01 
 1.19600000e-06  2.51999998e+01  2.52000000e+01 
 1.29600000e-06  2.51999998e+01  2.52000000e+01 
 1.39600000e-06  2.51999998e+01  2.52000000e+01 
 1.49600000e-06  2.51999998e+01  2.52000000e+01 
 1.59600000e-06  2.51999998e+01  2.52000000e+01 
 1.69600000e-06  2.51999998e+01  2.52000000e+01 
 1.79600000e-06  2.51999998e+01  2.52000000e+01 
 1.89600000e-06  2.51999998e+01  2.52000000e+01 
 1.99600000e-06  2.51999998e+01  2.52000000e+01 
 2.09600000e-06  2.51999998e+01  2.52000000e+01 
 2.19600000e-06  2.51999998e+01  2.52000000e+01 
 2.29600000e-06  2.51999998e+01  2.52000000e+01 
 2.39600000e-06  2.51999998e+01  2.52000000e+01 
 2.49600000e-06  2.51999998e+01  2.52000000e+01 
 2.59600000e-06  2.51999998e+01  2.52000000e+01 
 2.69600000e-06  2.51999998e+01  2.52000000e+01 
 2.79600000e-06  2.51999998e+01  2.52000000e+01 
 2.89600000e-06  2.51999998e+01  2.52000000e+01 
 2.99600000e-06  2.51999998e+01  2.52000000e+01 
 3.09600000e-06  2.51999998e+01  2.52000000e+01 
 3.19600000e-06  2.51999998e+01  2.52000000e+01 
 3.29600000e-06  2.51999998e+01  2.52000000e+01 
 3.39600000e-06  2.51999998e+01  2.52000000e+01 
 3.49600000e-06  2.51999998e+01  2.52000000e+01 
 3.59600000e-06  2.51999998e+01  2.52000000e+01 
 3.69600000e-06  2.51999998e+01  2.52000000e+01 
 3.79600000e-06  2.51999998e+01  2.51999999e+01 
 3.89600000e-06  2.51999998e+01  2.51999999e+01 
 3.99600000e-06  2.51999998e+01  2.51999999e+01 
 4.09600000e-06  2.51999998e+01  2.51999999e+01 
 4.19600000e-06  2.51999998e+01  2.51999999e+01 
 4.29600000e-06  2.51999998e+01  2.51999999e+01 
 4.39600000e-06  2.51999998e+01  2.51999999e+01 
 4.49600000e-06  2.51999998e+01  2.51999999e+01 
 4.59600000e-06  2.51999997e+01  2.51999999e+01 
 4.69600000e-06  2.51999997e+01  2.51999999e+01 
 4.79600000e-06  2.51999997e+01  2.51999999e+01 
 4.89600000e-06  2.51999997e+01  2.51999999e+01 
 4.99600000e-06  2.51999997e+01  2.51999999e+01 
 5.09600000e-06  2.51999997e+01  2.51999999e+01 
 5.19600000e-06  2.51999997e+01  2.51999999e+01 
 5.29600000e-06  2.51999997e+01  2.51999999e+01 
 5.39600000e-06  2.51999997e+01  2.51999999e+01 
 5.49600000e-06  2.51999997e+01  2.51999999e+01 
 5.59600000e-06  2.51999997e+01  2.51999999e+01 
 5.69600000e-06  2.51999997e+01  2.51999999e+01 
 5.79600000e-06  2.51999997e+01  2.51999999e+01 
 5.89600000e-06  2.51999997e+01  2.51999999e+01 
 5.99600000e-06  2.51999997e+01  2.51999999e+01 
 6.09600000e-06  2.51999997e+01  2.51999999e+01 
 6.19600000e-06  2.51999997e+01  2.51999999e+01 
 6.29600000e-06  2.51999997e+01  2.51999999e+01 
 6.39600000e-06  2.51999997e+01  2.51999999e+01 
 6.49600000e-06  2.51999997e+01  2.51999999e+01 
 6.59600000e-06  2.51999997e+01  2.51999999e+01 
 6.69600000e-06  2.51999997e+01  2.51999999e+01 
 6.79600000e-06  2.51999997e+01  2.51999999e+01 
 6.89600000e-06  2.51999997e+01  2.51999999e+01 
 6.99600000e-06  2.51999997e+01  2.51999999e+01 
 7.09600000e-06  2.51999997e+01  2.51999999e+01 
 7.19600000e-06  2.51999997e+01  2.51999999e+01 
 7.29600000e-06  2.51999997e+01  2.51999999e+01 
 7.39600000e-06  2.51999997e+01  2.51999999e+01 
 7.49600000e-06  2.51999997e+01  2.51999999e+01 
 7.59600000e-06  2.51999997e+01  2.51999999e+01 
 7.69600000e-06  2.51999997e+01  2.51999999e+01 
 7.79600000e-06  2.51999997e+01  2.51999999e+01 
 7.89600000e-06  2.51999997e+01  2.51999999e+01 
 7.99600000e-06  2.51999997e+01  2.51999999e+01 
 8.09600000e-06  2.51999997e+01  2.51999999e+01 
 8.19600000e-06  2.51999997e+01  2.51999999e+01 
 8.29600000e-06  2.51999997e+01  2.51999999e+01 
 8.39600000e-06  2.51999997e+01  2.51999999e+01 
 8.49600000e-06  2.51999997e+01  2.51999999e+01 
 8.59600000e-06  2.51999997e+01  2.51999999e+01 
 8.69600000e-06  2.51999997e+01  2.51999999e+01 
 8.79600000e-06  2.51999997e+01  2.51999999e+01 
 8.89600000e-06  2.51999997e+01  2.51999999e+01 
 8.99600000e-06  2.51999997e+01  2.51999999e+01 
 9.09600000e-06  2.51999997e+01  2.51999999e+01 
 9.19600000e-06  2.51999997e+01  2.51999999e+01 
 9.29600000e-06  2.51999997e+01  2.51999999e+01 
 9.39600000e-06  2.51999997e+01  2.51999999e+01 
 9.49600000e-06  2.51999997e+01  2.51999999e+01 
 9.59600000e-06  2.51999997e+01  2.51999999e+01 
 9.69600000e-06  2.51999997e+01  2.51999999e+01 
 9.79600000e-06  2.51999997e+01  2.51999999e+01 
 9.89600000e-06  2.51999997e+01  2.51999999e+01 
 9.99600000e-06  2.51999997e+01  2.51999999e+01 
 1.00960000e-05  2.51999997e+01  2.51999999e+01 
 1.01960000e-05  2.51999997e+01  2.51999999e+01 
 1.02960000e-05  2.51999997e+01  2.51999999e+01 
 1.03960000e-05  2.51999997e+01  2.51999999e+01 
 1.04960000e-05  2.51999997e+01  2.51999999e+01 
 1.05960000e-05  2.51999997e+01  2.51999999e+01 
 1.06960000e-05  2.51999997e+01  2.51999999e+01 
 1.07960000e-05  2.51999997e+01  2.51999999e+01 
 1.08960000e-05  2.51999997e+01  2.51999999e+01 
 1.09960000e-05  2.51999997e+01  2.51999999e+01 
 1.10960000e-05  2.51999997e+01  2.51999999e+01 
 1.11960000e-05  2.51999997e+01  2.51999999e+01 
 1.12960000e-05  2.51999997e+01  2.51999998e+01 
 1.13960000e-05  2.51999997e+01  2.51999998e+01 
 1.14960000e-05  2.51999997e+01  2.51999998e+01 
 1.15960000e-05  2.51999997e+01  2.51999998e+01 
 1.16960000e-05  2.51999997e+01  2.51999998e+01 
 1.17960000e-05  2.51999997e+01  2.51999998e+01 
 1.18960000e-05  2.51999997e+01  2.51999998e+01 
 1.19960000e-05  2.51999997e+01  2.51999998e+01 
 1.20960000e-05  2.51999996e+01  2.51999998e+01 
 1.21960000e-05  2.51999996e+01  2.51999998e+01 
 1.22960000e-05  2.51999996e+01  2.51999998e+01 
 1.23960000e-05  2.51999996e+01  2.51999998e+01 
 1.24960000e-05  2.51999996e+01  2.51999998e+01 
 1.25960000e-05  2.51999996e+01  2.51999998e+01 
 1.26960000e-05  2.51999996e+01  2.51999998e+01 
 1.27960000e-05  2.51999996e+01  2.51999998e+01 
 1.28960000e-05  2.51999996e+01  2.51999998e+01 
 1.29960000e-05  2.51999996e+01  2.51999998e+01 
 1.30960000e-05  2.51999996e+01  2.51999998e+01 
 1.31960000e-05  2.51999996e+01  2.51999998e+01 
 1.32960000e-05  2.51999996e+01  2.51999998e+01 
 1.33960000e-05  2.51999996e+01  2.51999998e+01 
 1.34960000e-05  2.51999996e+01  2.51999998e+01 
 1.35960000e-05  2.51999996e+01  2.51999998e+01 
 1.36960000e-05  2.51999996e+01  2.51999998e+01 
 1.37960000e-05  2.51999996e+01  2.51999998e+01 
 1.38960000e-05  2.51999996e+01  2.51999998e+01 
 1.39960000e-05  2.51999996e+01  2.51999998e+01 
 1.40960000e-05  2.51999996e+01  2.51999998e+01 
 1.41960000e-05  2.51999996e+01  2.51999998e+01 
 1.42960000e-05  2.51999996e+01  2.51999998e+01 
 1.43960000e-05  2.51999996e+01  2.51999998e+01 
 1.44960000e-05  2.51999996e+01  2.51999998e+01 
 1.45960000e-05  2.51999996e+01  2.51999998e+01 
 1.46960000e-05  2.51999996e+01  2.51999998e+01 
 1.47960000e-05  2.51999996e+01  2.51999998e+01 
 1.48960000e-05  2.51999996e+01  2.51999998e+01 
 1.49960000e-05  2.51999996e+01  2.51999998e+01 
 1.50960000e-05  2.51999996e+01  2.51999998e+01 
 1.51960000e-05  2.51999996e+01  2.51999998e+01 
 1.52960000e-05  2.51999996e+01  2.51999998e+01 
 1.53960000e-05  2.51999996e+01  2.51999998e+01 
 1.54960000e-05  2.51999996e+01  2.51999998e+01 
 1.55960000e-05  2.51999996e+01  2.51999998e+01 
 1.56960000e-05  2.51999996e+01  2.51999998e+01 
 1.57960000e-05  2.51999996e+01  2.51999998e+01 
 1.58960000e-05  2.51999996e+01  2.51999998e+01 
 1.59960000e-05  2.51999996e+01  2.51999998e+01 
 1.60960000e-05  2.51999996e+01  2.51999998e+01 
 1.61960000e-05  2.51999996e+01  2.51999998e+01 
 1.62960000e-05  2.51999996e+01  2.51999998e+01 
 1.63960000e-05  2.51999996e+01  2.51999998e+01 
 1.64960000e-05  2.51999996e+01  2.51999998e+01 
 1.65960000e-05  2.51999996e+01  2.51999998e+01 
 1.66960000e-05  2.51999996e+01  2.51999998e+01 
 1.67960000e-05  2.51999996e+01  2.51999998e+01 
 1.68960000e-05  2.51999996e+01  2.51999998e+01 
 1.69960000e-05  2.51999996e+01  2.51999998e+01 
 1.70960000e-05  2.51999996e+01  2.51999998e+01 
 1.71960000e-05  2.51999996e+01  2.51999998e+01 
 1.72960000e-05  2.51999996e+01  2.51999998e+01 
 1.73960000e-05  2.51999996e+01  2.51999998e+01 
 1.74960000e-05  2.51999996e+01  2.51999998e+01 
 1.75960000e-05  2.51999996e+01  2.51999998e+01 
 1.76960000e-05  2.51999996e+01  2.51999998e+01 
 1.77960000e-05  2.51999996e+01  2.51999998e+01 
 1.78960000e-05  2.51999996e+01  2.51999998e+01 
 1.79960000e-05  2.51999996e+01  2.51999998e+01 
 1.80960000e-05  2.51999996e+01  2.51999998e+01 
 1.81960000e-05  2.51999996e+01  2.51999998e+01 
 1.82960000e-05  2.51999996e+01  2.51999998e+01 
 1.83960000e-05  2.51999996e+01  2.51999998e+01 
 1.84960000e-05  2.51999996e+01  2.51999998e+01 
 1.85960000e-05  2.51999996e+01  2.51999998e+01 
 1.86960000e-05  2.51999996e+01  2.51999998e+01 
 1.87960000e-05  2.51999996e+01  2.51999997e+01 
 1.88960000e-05  2.51999996e+01  2.51999997e+01 
 1.89960000e-05  2.51999996e+01  2.51999997e+01 
 1.90960000e-05  2.51999996e+01  2.51999997e+01 
 1.91960000e-05  2.51999996e+01  2.51999997e+01 
 1.92960000e-05  2.51999996e+01  2.51999997e+01 
 1.93960000e-05  2.51999996e+01  2.51999997e+01 
 1.94960000e-05  2.51999996e+01  2.51999997e+01 
 1.95960000e-05  2.51999996e+01  2.51999997e+01 
 1.96960000e-05  2.51999995e+01  2.51999997e+01 
 1.97960000e-05  2.51999995e+01  2.51999997e+01 
 1.98960000e-05  2.51999995e+01  2.51999997e+01 
 1.99960000e-05  2.51999995e+01  2.51999997e+01 
 2.00960000e-05  2.51999995e+01  2.51999997e+01 
 2.01960000e-05  2.51999995e+01  2.51999997e+01 
 2.02960000e-05  2.51999995e+01  2.51999997e+01 
 2.03960000e-05  2.51999995e+01  2.51999997e+01 
 2.04960000e-05  2.51999995e+01  2.51999997e+01 
 2.05960000e-05  2.51999995e+01  2.51999997e+01 
 2.06960000e-05  2.51999995e+01  2.51999997e+01 
 2.07960000e-05  2.51999995e+01  2.51999997e+01 
 2.08960000e-05  2.51999995e+01  2.51999997e+01 
 2.09960000e-05  2.51999995e+01  2.51999997e+01 
 2.10960000e-05  2.51999995e+01  2.51999997e+01 
 2.11960000e-05  2.51999995e+01  2.51999997e+01 
 2.12960000e-05  2.51999995e+01  2.51999997e+01 
 2.13960000e-05  2.51999995e+01  2.51999997e+01 
 2.14960000e-05  2.51999995e+01  2.51999997e+01 
 2.15960000e-05  2.51999995e+01  2.51999997e+01 
 2.16960000e-05  2.51999995e+01  2.51999997e+01 
 2.17960000e-05  2.51999995e+01  2.51999997e+01 
 2.18960000e-05  2.51999995e+01  2.51999997e+01 
 2.19960000e-05  2.51999995e+01  2.51999997e+01 
 2.20960000e-05  2.51999995e+01  2.51999997e+01 
 2.21960000e-05  2.51999995e+01  2.51999997e+01 
 2.22960000e-05  2.51999995e+01  2.51999997e+01 
 2.23960000e-05  2.51999995e+01  2.51999997e+01 
 2.24960000e-05  2.51999995e+01  2.51999997e+01 
 2.25960000e-05  2.51999995e+01  2.51999997e+01 
 2.26960000e-05  2.51999995e+01  2.51999997e+01 
 2.27960000e-05  2.51999995e+01  2.51999997e+01 
 2.28960000e-05  2.51999995e+01  2.51999997e+01 
 2.29960000e-05  2.51999995e+01  2.51999997e+01 
 2.30960000e-05  2.51999995e+01  2.51999997e+01 
 2.31960000e-05  2.51999995e+01  2.51999997e+01 
 2.32960000e-05  2.51999995e+01  2.51999997e+01 
 2.33960000e-05  2.51999995e+01  2.51999997e+01 
 2.34960000e-05  2.51999995e+01  2.51999997e+01 
 2.35960000e-05  2.51999995e+01  2.51999997e+01 
 2.36960000e-05  2.51999995e+01  2.51999997e+01 
 2.37960000e-05  2.51999995e+01  2.51999997e+01 
 2.38960000e-05  2.51999995e+01  2.51999997e+01 
 2.39960000e-05  2.51999995e+01  2.51999997e+01 
 2.40960000e-05  2.51999995e+01  2.51999997e+01 
 2.41960000e-05  2.51999995e+01  2.51999997e+01 
 2.42960000e-05  2.51999995e+01  2.51999997e+01 
 2.43960000e-05  2.51999995e+01  2.51999997e+01 
 2.44960000e-05  2.51999995e+01  2.51999997e+01 
 2.45960000e-05  2.51999995e+01  2.51999997e+01 
 2.46960000e-05  2.51999995e+01  2.51999997e+01 
 2.47960000e-05  2.51999995e+01  2.51999997e+01 
 2.48960000e-05  2.51999995e+01  2.51999997e+01 
 2.49960000e-05  2.51999995e+01  2.51999997e+01 
 2.50960000e-05  2.51999995e+01  2.51999997e+01 
 2.51960000e-05  2.51999995e+01  2.51999997e+01 
 2.52960000e-05  2.51999995e+01  2.51999997e+01 
 2.53960000e-05  2.51999995e+01  2.51999997e+01 
 2.54960000e-05  2.51999995e+01  2.51999997e+01 
 2.55960000e-05  2.51999995e+01  2.51999997e+01 
 2.56960000e-05  2.51999995e+01  2.51999997e+01 
 2.57960000e-05  2.51999995e+01  2.51999997e+01 
 2.58960000e-05  2.51999995e+01  2.51999997e+01 
 2.59960000e-05  2.51999995e+01  2.51999997e+01 
 2.60960000e-05  2.51999995e+01  2.51999997e+01 
 2.61960000e-05  2.51999995e+01  2.51999997e+01 
 2.62960000e-05  2.51999995e+01  2.51999996e+01 
 2.63960000e-05  2.51999995e+01  2.51999996e+01 
 2.64960000e-05  2.51999995e+01  2.51999996e+01 
 2.65960000e-05  2.51999995e+01  2.51999996e+01 
 2.66960000e-05  2.51999995e+01  2.51999996e+01 
 2.67960000e-05  2.51999995e+01  2.51999996e+01 
 2.68960000e-05  2.51999995e+01  2.51999996e+01 
 2.69960000e-05  2.51999995e+01  2.51999996e+01 
 2.70960000e-05  2.51999995e+01  2.51999996e+01 
 2.71960000e-05  2.51999994e+01  2.51999996e+01 
 2.72960000e-05  2.51999994e+01  2.51999996e+01 
 2.73960000e-05  2.51999994e+01  2.51999996e+01 
 2.74960000e-05  2.51999994e+01  2.51999996e+01 
 2.75960000e-05  2.51999994e+01  2.51999996e+01 
 2.76960000e-05  2.51999994e+01  2.51999996e+01 
 2.77960000e-05  2.51999994e+01  2.51999996e+01 
 2.78960000e-05  2.51999994e+01  2.51999996e+01 
 2.79960000e-05  2.51999994e+01  2.51999996e+01 
 2.80960000e-05  2.51999994e+01  2.51999996e+01 
 2.81960000e-05  2.51999994e+01  2.51999996e+01 
 2.82960000e-05  2.51999994e+01  2.51999996e+01 
 2.83960000e-05  2.51999994e+01  2.51999996e+01 
 2.84960000e-05  2.51999994e+01  2.51999996e+01 
 2.85960000e-05  2.51999994e+01  2.51999996e+01 
 2.86960000e-05  2.51999994e+01  2.51999996e+01 
 2.87960000e-05  2.51999994e+01  2.51999996e+01 
 2.88960000e-05  2.51999994e+01  2.51999996e+01 
 2.89960000e-05  2.51999994e+01  2.51999996e+01 
 2.90960000e-05  2.51999994e+01  2.51999996e+01 
 2.91960000e-05  2.51999994e+01  2.51999996e+01 
 2.92960000e-05  2.51999994e+01  2.51999996e+01 
 2.93960000e-05  2.51999994e+01  2.51999996e+01 
 2.94960000e-05  2.51999994e+01  2.51999996e+01 
 2.95960000e-05  2.51999994e+01  2.51999996e+01 
 2.96960000e-05  2.51999994e+01  2.51999996e+01 
 2.97960000e-05  2.51999994e+01  2.51999996e+01 
 2.98960000e-05  2.51999994e+01  2.51999996e+01 
 2.99960000e-05  2.51999994e+01  2.51999996e+01 
 3.00960000e-05  2.51999994e+01  2.51999996e+01 
 3.01960000e-05  2.51999994e+01  2.51999996e+01 
 3.02960000e-05  2.51999994e+01  2.51999996e+01 
 3.03960000e-05  2.51999994e+01  2.51999996e+01 
 3.04960000e-05  2.51999994e+01  2.51999996e+01 
 3.05960000e-05  2.51999994e+01  2.51999996e+01 
 3.06960000e-05  2.51999994e+01  2.51999996e+01 
 3.07960000e-05  2.51999994e+01  2.51999996e+01 
 3.08960000e-05  2.51999994e+01  2.51999996e+01 
 3.09960000e-05  2.51999994e+01  2.51999996e+01 
 3.10960000e-05  2.51999994e+01  2.51999996e+01 
 3.11960000e-05  2.51999994e+01  2.51999996e+01 
 3.12960000e-05  2.51999994e+01  2.51999996e+01 
 3.13960000e-05  2.51999994e+01  2.51999996e+01 
 3.14960000e-05  2.51999994e+01  2.51999996e+01 
 3.15960000e-05  2.51999994e+01  2.51999996e+01 
 3.16960000e-05  2.51999994e+01  2.51999996e+01 
 3.17960000e-05  2.51999994e+01  2.51999996e+01 
 3.18960000e-05  2.51999994e+01  2.51999996e+01 
 3.19960000e-05  2.51999994e+01  2.51999996e+01 
 3.20960000e-05  2.51999994e+01  2.51999996e+01 
 3.21960000e-05  2.51999994e+01  2.51999996e+01 
 3.22960000e-05  2.51999994e+01  2.51999996e+01 
 3.23960000e-05  2.51999994e+01  2.51999996e+01 
 3.24960000e-05  2.51999994e+01  2.51999996e+01 
 3.25960000e-05  2.51999994e+01  2.51999996e+01 
 3.26960000e-05  2.51999994e+01  2.51999996e+01 
 3.27960000e-05  2.51999994e+01  2.51999996e+01 
 3.28960000e-05  2.51999994e+01  2.51999996e+01 
 3.29960000e-05  2.51999994e+01  2.51999996e+01 
 3.30960000e-05  2.51999994e+01  2.51999996e+01 
 3.31960000e-05  2.51999994e+01  2.51999996e+01 
 3.32960000e-05  2.51999994e+01  2.51999996e+01 
 3.33960000e-05  2.51999994e+01  2.51999996e+01 
 3.34960000e-05  2.51999994e+01  2.51999996e+01 
 3.35960000e-05  2.51999994e+01  2.51999996e+01 
 3.36960000e-05  2.51999994e+01  2.51999996e+01 
 3.37960000e-05  2.51999994e+01  2.51999995e+01 
 3.38960000e-05  2.51999994e+01  2.51999995e+01 
 3.39960000e-05  2.51999994e+01  2.51999995e+01 
 3.40960000e-05  2.51999994e+01  2.51999995e+01 
 3.41960000e-05  2.51999994e+01  2.51999995e+01 
 3.42960000e-05  2.51999994e+01  2.51999995e+01 
 3.43960000e-05  2.51999994e+01  2.51999995e+01 
 3.44960000e-05  2.51999994e+01  2.51999995e+01 
 3.45960000e-05  2.51999994e+01  2.51999995e+01 
 3.46960000e-05  2.51999993e+01  2.51999995e+01 
 3.47960000e-05  2.51999993e+01  2.51999995e+01 
 3.48960000e-05  2.51999993e+01  2.51999995e+01 
 3.49960000e-05  2.51999993e+01  2.51999995e+01 
 3.50960000e-05  2.51999993e+01  2.51999995e+01 
 3.51960000e-05  2.51999993e+01  2.51999995e+01 
 3.52960000e-05  2.51999993e+01  2.51999995e+01 
 3.53960000e-05  2.51999993e+01  2.51999995e+01 
 3.54960000e-05  2.51999993e+01  2.51999995e+01 
 3.55960000e-05  2.51999993e+01  2.51999995e+01 
 3.56960000e-05  2.51999993e+01  2.51999995e+01 
 3.57960000e-05  2.51999993e+01  2.51999995e+01 
 3.58960000e-05  2.51999993e+01  2.51999995e+01 
 3.59960000e-05  2.51999993e+01  2.51999995e+01 
 3.60960000e-05  2.51999993e+01  2.51999995e+01 
 3.61960000e-05  2.51999993e+01  2.51999995e+01 
 3.62960000e-05  2.51999993e+01  2.51999995e+01 
 3.63960000e-05  2.51999993e+01  2.51999995e+01 
 3.64960000e-05  2.51999993e+01  2.51999995e+01 
 3.65960000e-05  2.51999993e+01  2.51999995e+01 
 3.66960000e-05  2.51999993e+01  2.51999995e+01 
 3.67960000e-05  2.51999993e+01  2.51999995e+01 
 3.68960000e-05  2.51999993e+01  2.51999995e+01 
 3.69960000e-05  2.51999993e+01  2.51999995e+01 
 3.70960000e-05  2.51999993e+01  2.51999995e+01 
 3.71960000e-05  2.51999993e+01  2.51999995e+01 
 3.72960000e-05  2.51999993e+01  2.51999995e+01 
 3.73960000e-05  2.51999993e+01  2.51999995e+01 
 3.74960000e-05  2.51999993e+01  2.51999995e+01 
 3.75960000e-05  2.51999993e+01  2.51999995e+01 
 3.76960000e-05  2.51999993e+01  2.51999995e+01 
 3.77960000e-05  2.51999993e+01  2.51999995e+01 
 3.78960000e-05  2.51999993e+01  2.51999995e+01 
 3.79960000e-05  2.51999993e+01  2.51999995e+01 
 3.80960000e-05  2.51999993e+01  2.51999995e+01 
 3.81960000e-05  2.51999993e+01  2.51999995e+01 
 3.82960000e-05  2.51999993e+01  2.51999995e+01 
 3.83960000e-05  2.51999993e+01  2.51999995e+01 
 3.84960000e-05  2.51999993e+01  2.51999995e+01 
 3.85960000e-05  2.51999993e+01  2.51999995e+01 
 3.86960000e-05  2.51999993e+01  2.51999995e+01 
 3.87960000e-05  2.51999993e+01  2.51999995e+01 
 3.88960000e-05  2.51999993e+01  2.51999995e+01 
 3.89960000e-05  2.51999993e+01  2.51999995e+01 
 3.90960000e-05  2.51999993e+01  2.51999995e+01 
 3.91960000e-05  2.51999993e+01  2.51999995e+01 
 3.92960000e-05  2.51999993e+01  2.51999995e+01 
 3.93960000e-05  2.51999993e+01  2.51999995e+01 
 3.94960000e-05  2.51999993e+01  2.51999995e+01 
 3.95960000e-05  2.51999993e+01  2.51999995e+01 
 3.96960000e-05  2.51999993e+01  2.51999995e+01 
