 time            v(RX)           v(GPIO_IN)     
 1.00000000e-11  0.00000000e+00  0.00000000e+00 
 2.00000000e-11  0.00000000e+00  0.00000000e+00 
 4.00000000e-11  0.00000000e+00  0.00000000e+00 
 8.00000000e-11  0.00000000e+00  0.00000000e+00 
 1.60000000e-10  0.00000000e+00  0.00000000e+00 
 3.20000000e-10  0.00000000e+00  0.00000000e+00 
 6.40000000e-10  0.00000000e+00  0.00000000e+00 
 1.00000000e-09  0.00000000e+00  0.00000000e+00 
 1.06400000e-09  0.00000000e+00  0.00000000e+00 
 1.19200000e-09  0.00000000e+00  0.00000000e+00 
 1.44800000e-09  0.00000000e+00  0.00000000e+00 
 1.96000000e-09  0.00000000e+00  0.00000000e+00 
 2.96000000e-09  0.00000000e+00  0.00000000e+00 
 3.96000000e-09  0.00000000e+00  0.00000000e+00 
 4.96000000e-09  0.00000000e+00  0.00000000e+00 
 5.96000000e-09  0.00000000e+00  0.00000000e+00 
 6.96000000e-09  0.00000000e+00  0.00000000e+00 
 7.96000000e-09  0.00000000e+00  0.00000000e+00 
 8.96000000e-09  0.00000000e+00  0.00000000e+00 
 9.96000000e-09  0.00000000e+00  0.00000000e+00 
 1.09600000e-08  0.00000000e+00  0.00000000e+00 
 1.19600000e-08  0.00000000e+00  0.00000000e+00 
 1.29600000e-08  0.00000000e+00  0.00000000e+00 
 1.39600000e-08  0.00000000e+00  0.00000000e+00 
 1.49600000e-08  0.00000000e+00  0.00000000e+00 
 1.59600000e-08  0.00000000e+00  0.00000000e+00 
 1.69600000e-08  0.00000000e+00  0.00000000e+00 
 1.79600000e-08  0.00000000e+00  0.00000000e+00 
 1.89600000e-08  0.00000000e+00  0.00000000e+00 
 1.99600000e-08  0.00000000e+00  0.00000000e+00 
 2.09600000e-08  0.00000000e+00  0.00000000e+00 
 2.19600000e-08  0.00000000e+00  0.00000000e+00 
 2.29600000e-08  0.00000000e+00  0.00000000e+00 
 2.39600000e-08  0.00000000e+00  0.00000000e+00 
 2.49600000e-08  0.00000000e+00  0.00000000e+00 
 2.59600000e-08  0.00000000e+00  0.00000000e+00 
 2.69600000e-08  0.00000000e+00  0.00000000e+00 
 2.79600000e-08  0.00000000e+00  0.00000000e+00 
 2.89600000e-08  0.00000000e+00  0.00000000e+00 
 2.99600000e-08  0.00000000e+00  0.00000000e+00 
 3.09600000e-08  0.00000000e+00  0.00000000e+00 
 3.19600000e-08  0.00000000e+00  0.00000000e+00 
 3.29600000e-08  0.00000000e+00  0.00000000e+00 
 3.39600000e-08  0.00000000e+00  0.00000000e+00 
 3.49600000e-08  0.00000000e+00  0.00000000e+00 
 3.59600000e-08  0.00000000e+00  0.00000000e+00 
 3.69600000e-08  0.00000000e+00  0.00000000e+00 
 3.79600000e-08  0.00000000e+00  0.00000000e+00 
 3.89600000e-08  0.00000000e+00  0.00000000e+00 
 3.99600000e-08  0.00000000e+00  0.00000000e+00 
 4.09600000e-08  0.00000000e+00  0.00000000e+00 
 4.19600000e-08  0.00000000e+00  0.00000000e+00 
 4.29600000e-08  0.00000000e+00  0.00000000e+00 
 4.39600000e-08  0.00000000e+00  0.00000000e+00 
 4.49600000e-08  0.00000000e+00  0.00000000e+00 
 4.59600000e-08  0.00000000e+00  0.00000000e+00 
 4.69600000e-08  0.00000000e+00  0.00000000e+00 
 4.79600000e-08  0.00000000e+00  0.00000000e+00 
 4.89600000e-08  0.00000000e+00  0.00000000e+00 
 4.99600000e-08  0.00000000e+00  0.00000000e+00 
 5.09600000e-08  0.00000000e+00  0.00000000e+00 
 5.19600000e-08  0.00000000e+00  0.00000000e+00 
 5.29600000e-08  0.00000000e+00  0.00000000e+00 
 5.39600000e-08  0.00000000e+00  0.00000000e+00 
 5.49600000e-08  0.00000000e+00  0.00000000e+00 
 5.59600000e-08  0.00000000e+00  0.00000000e+00 
 5.69600000e-08  0.00000000e+00  0.00000000e+00 
 5.79600000e-08  0.00000000e+00  0.00000000e+00 
 5.89600000e-08  0.00000000e+00  0.00000000e+00 
 5.99600000e-08  0.00000000e+00  0.00000000e+00 
 6.09600000e-08  0.00000000e+00  0.00000000e+00 
 6.19600000e-08  0.00000000e+00  0.00000000e+00 
 6.29600000e-08  0.00000000e+00  0.00000000e+00 
 6.39600000e-08  0.00000000e+00  0.00000000e+00 
 6.49600000e-08  0.00000000e+00  0.00000000e+00 
 6.59600000e-08  0.00000000e+00  0.00000000e+00 
 6.69600000e-08  0.00000000e+00  0.00000000e+00 
 6.79600000e-08  0.00000000e+00  0.00000000e+00 
 6.89600000e-08  0.00000000e+00  0.00000000e+00 
 6.99600000e-08  0.00000000e+00  0.00000000e+00 
 7.09600000e-08  0.00000000e+00  0.00000000e+00 
 7.19600000e-08  0.00000000e+00  0.00000000e+00 
 7.29600000e-08  0.00000000e+00  0.00000000e+00 
 7.39600000e-08  0.00000000e+00  0.00000000e+00 
 7.49600000e-08  0.00000000e+00  0.00000000e+00 
 7.59600000e-08  0.00000000e+00  0.00000000e+00 
 7.69600000e-08  0.00000000e+00  0.00000000e+00 
 7.79600000e-08  0.00000000e+00  0.00000000e+00 
 7.89600000e-08  0.00000000e+00  0.00000000e+00 
 7.99600000e-08  0.00000000e+00  0.00000000e+00 
 8.09600000e-08  0.00000000e+00  0.00000000e+00 
 8.19600000e-08  0.00000000e+00  0.00000000e+00 
 8.29600000e-08  0.00000000e+00  0.00000000e+00 
 8.39600000e-08  0.00000000e+00  0.00000000e+00 
 8.49600000e-08  0.00000000e+00  0.00000000e+00 
 8.59600000e-08  0.00000000e+00  0.00000000e+00 
 8.69600000e-08  0.00000000e+00  0.00000000e+00 
 8.79600000e-08  0.00000000e+00  0.00000000e+00 
 8.89600000e-08  0.00000000e+00  0.00000000e+00 
 8.99600000e-08  0.00000000e+00  0.00000000e+00 
 9.09600000e-08  0.00000000e+00  0.00000000e+00 
 9.19600000e-08  0.00000000e+00  0.00000000e+00 
 9.29600000e-08  0.00000000e+00  0.00000000e+00 
 9.39600000e-08  0.00000000e+00  0.00000000e+00 
 9.49600000e-08  0.00000000e+00  0.00000000e+00 
 9.59600000e-08  0.00000000e+00  0.00000000e+00 
 9.69600000e-08  0.00000000e+00  0.00000000e+00 
 9.79600000e-08  0.00000000e+00  0.00000000e+00 
 9.89600000e-08  0.00000000e+00  0.00000000e+00 
 9.99600000e-08  0.00000000e+00  0.00000000e+00 
 1.00000000e-07  0.00000000e+00  0.00000000e+00 
 1.00001680e-07  2.29243321e-23  1.10880047e-04 
 1.00005040e-07  5.26292363e-22  3.32640141e-04 
 1.00011760e-07  5.48691941e-19  7.76160330e-04 
 1.00024183e-07  6.01306461e-16  1.59606741e-03 
 1.00049029e-07  1.05368757e-12  3.23588156e-03 
 1.00085644e-07  1.54354943e-10  5.65248729e-03 
 1.00121412e-07  1.90909921e-09  8.01317920e-03 
 1.00176110e-07  5.89559886e-08  1.16232282e-02 
 1.00230056e-07  4.96667965e-07  1.51836664e-02 
 1.00292609e-07  3.58842854e-06  1.93122181e-02 
 1.00360049e-07  1.88451113e-05  2.37632561e-02 
 1.00439653e-07  8.86647912e-05  2.90171146e-02 
 1.00537823e-07  3.77576599e-04  3.54963071e-02 
 1.00678091e-07  1.59563864e-03  4.47540374e-02 
 1.00844224e-07  4.71289332e-03  5.57187637e-02 
 1.01049322e-07  1.07818557e-02  6.92552485e-02 
 1.01317722e-07  2.10603565e-02  8.69696521e-02 
 1.01616935e-07  3.48295560e-02  1.06717702e-01 
 1.02082370e-07  5.97356078e-02  1.37436444e-01 
 1.02660104e-07  9.44003902e-02  1.75566868e-01 
 1.03515982e-07  1.49358887e-01  2.32054831e-01 
 1.04515982e-07  2.14611045e-01  2.98054831e-01 
 1.05515982e-07  2.80427721e-01  3.64054831e-01 
 1.06515982e-07  3.46084428e-01  4.30054831e-01 
 1.07515982e-07  4.11689756e-01  4.96054831e-01 
 1.08515982e-07  4.77485076e-01  5.62054831e-01 
 1.09515982e-07  5.43015368e-01  6.28054831e-01 
 1.10515982e-07  6.08813925e-01  6.94054831e-01 
 1.11515982e-07  6.74391541e-01  7.60054831e-01 
 1.12515982e-07  7.40119526e-01  8.26054831e-01 
 1.13515982e-07  8.05767522e-01  8.92054831e-01 
 1.14515982e-07  8.71439530e-01  9.58054831e-01 
 1.15515982e-07  9.37124725e-01  1.02405483e+00 
 1.16515982e-07  1.00277575e+00  1.09005483e+00 
 1.17515982e-07  1.06847108e+00  1.15605483e+00 
 1.18515982e-07  1.13411809e+00  1.22205483e+00 
 1.19515982e-07  1.19981371e+00  1.28805483e+00 
 1.20515982e-07  1.26546400e+00  1.35405483e+00 
 1.21515982e-07  1.33115185e+00  1.42005483e+00 
 1.22515982e-07  1.39681493e+00  1.48605483e+00 
 1.23515982e-07  1.46248591e+00  1.55205483e+00 
 1.24515982e-07  1.52816734e+00  1.61805483e+00 
 1.25515982e-07  1.59382213e+00  1.68405483e+00 
 1.26515982e-07  1.65951392e+00  1.75005483e+00 
 1.27515982e-07  1.72516689e+00  1.81605483e+00 
 1.28515982e-07  1.79085091e+00  1.88205483e+00 
 1.29515982e-07  1.85652034e+00  1.94805483e+00 
 1.30515982e-07  1.92218181e+00  2.01405483e+00 
 1.31515982e-07  1.98787621e+00  2.08005483e+00 
 1.32515982e-07  2.05351431e+00  2.14605483e+00 
 1.33515982e-07  2.11922679e+00  2.21205483e+00 
 1.34515982e-07  2.18485491e+00  2.27805483e+00 
 1.35515982e-07  2.25056766e+00  2.34405483e+00 
 1.36515982e-07  2.31620555e+00  2.41005483e+00 
 1.37515982e-07  2.38189940e+00  2.47605483e+00 
 1.38515982e-07  2.44756336e+00  2.54205483e+00 
 1.39515982e-07  2.51322669e+00  2.60805483e+00 
 1.40515982e-07  2.57892242e+00  2.67405483e+00 
 1.41515982e-07  2.64455606e+00  2.74005483e+00 
 1.42515982e-07  2.71027632e+00  2.80605483e+00 
 1.43515982e-07  2.77589313e+00  2.87205483e+00 
 1.44515982e-07  2.84162078e+00  2.93805483e+00 
 1.45515982e-07  2.90724038e+00  3.00405483e+00 
 1.46515982e-07  2.97295536e+00  3.07005483e+00 
 1.47515982e-07  3.03859621e+00  3.13605483e+00 
 1.48515982e-07  3.10428352e+00  3.20205483e+00 
 1.49515982e-07  3.16995570e+00  3.26805483e+00 
 1.50000000e-07  3.20171929e+00  3.30000000e+00 
 1.50100000e-07  3.20829875e+00  3.30000000e+00 
 1.50300000e-07  3.22134588e+00  3.30000000e+00 
 1.50700000e-07  3.24501395e+00  3.30000000e+00 
 1.51369729e-07  3.26979496e+00  3.30000000e+00 
 1.51830166e-07  3.27651047e+00  3.30000000e+00 
 1.52338854e-07  3.28070266e+00  3.30000000e+00 
 1.52759126e-07  3.28266996e+00  3.30000000e+00 
 1.53214404e-07  3.28303995e+00  3.30000000e+00 
 1.53683848e-07  3.28334910e+00  3.30000000e+00 
 1.54251665e-07  3.28362282e+00  3.30000000e+00 
 1.54825937e-07  3.28357426e+00  3.30000000e+00 
 1.55485136e-07  3.28358163e+00  3.30000000e+00 
 1.56099555e-07  3.28356738e+00  3.30000000e+00 
 1.56854373e-07  3.28362909e+00  3.30000000e+00 
 1.57782350e-07  3.28352513e+00  3.30000000e+00 
 1.58782350e-07  3.28363406e+00  3.30000000e+00 
 1.59782350e-07  3.28354834e+00  3.30000000e+00 
 1.60782350e-07  3.28359027e+00  3.30000000e+00 
 1.61782350e-07  3.28359985e+00  3.30000000e+00 
 1.62782350e-07  3.28354381e+00  3.30000000e+00 
 1.63782350e-07  3.28363217e+00  3.30000000e+00 
 1.64782350e-07  3.28352948e+00  3.30000000e+00 
 1.65782350e-07  3.28362949e+00  3.30000000e+00 
 1.66782350e-07  3.28354508e+00  3.30000000e+00 
 1.67782350e-07  3.28360624e+00  3.30000000e+00 
 1.68782350e-07  3.28357109e+00  3.30000000e+00 
 1.69782350e-07  3.28358111e+00  3.30000000e+00 
 1.70782350e-07  3.28359309e+00  3.30000000e+00 
 1.71782350e-07  3.28356344e+00  3.30000000e+00 
 1.72782350e-07  3.28360582e+00  3.30000000e+00 
 1.73782350e-07  3.28355593e+00  3.30000000e+00 
 1.74782350e-07  3.28360799e+00  3.30000000e+00 
 1.75782350e-07  3.28355897e+00  3.30000000e+00 
 1.76782350e-07  3.28360028e+00  3.30000000e+00 
 1.77782350e-07  3.28357034e+00  3.30000000e+00 
 1.78782350e-07  3.28358675e+00  3.30000000e+00 
 1.79782350e-07  3.28358422e+00  3.30000000e+00 
 1.80782350e-07  3.28357431e+00  3.30000000e+00 
 1.81782350e-07  3.28359369e+00  3.30000000e+00 
 1.82782350e-07  3.28356883e+00  3.30000000e+00 
 1.83782350e-07  3.28359483e+00  3.30000000e+00 
 1.84782350e-07  3.28357170e+00  3.30000000e+00 
 1.85782350e-07  3.28358885e+00  3.30000000e+00 
 1.86782350e-07  3.28357955e+00  3.30000000e+00 
 1.87782350e-07  3.28358056e+00  3.30000000e+00 
 1.88782350e-07  3.28358692e+00  3.30000000e+00 
 1.89782350e-07  3.28357521e+00  3.30000000e+00 
 1.90782350e-07  3.28358951e+00  3.30000000e+00 
 1.91782350e-07  3.28357567e+00  3.30000000e+00 
 1.92782350e-07  3.28358614e+00  3.30000000e+00 
 1.93782350e-07  3.28358139e+00  3.30000000e+00 
 1.94782350e-07  3.28357895e+00  3.30000000e+00 
 1.95782350e-07  3.28358900e+00  3.30000000e+00 
 1.96782350e-07  3.28357203e+00  3.30000000e+00 
 1.97782350e-07  3.28359421e+00  3.30000000e+00 
 1.98782350e-07  3.28356933e+00  3.30000000e+00 
 1.99782350e-07  3.28359391e+00  3.30000000e+00 
 2.00782350e-07  3.28357274e+00  3.30000000e+00 
 2.01782350e-07  3.28358766e+00  3.30000000e+00 
 2.02782350e-07  3.28358121e+00  3.30000000e+00 
 2.03782350e-07  3.28357787e+00  3.30000000e+00 
 2.04782350e-07  3.28359127e+00  3.30000000e+00 
 2.05782350e-07  3.28356866e+00  3.30000000e+00 
 2.06782350e-07  3.28359862e+00  3.30000000e+00 
 2.07782350e-07  3.28356397e+00  3.30000000e+00 
 2.08782350e-07  3.28360011e+00  3.30000000e+00 
 2.09782350e-07  3.28356586e+00  3.30000000e+00 
 2.10782350e-07  3.28359502e+00  3.30000000e+00 
 2.11782350e-07  3.28357364e+00  3.30000000e+00 
 2.12782350e-07  3.28358530e+00  3.30000000e+00 
 2.13782350e-07  3.28358435e+00  3.30000000e+00 
 2.14782350e-07  3.28357462e+00  3.30000000e+00 
 2.15782350e-07  3.28359402e+00  3.30000000e+00 
 2.16782350e-07  3.28356680e+00  3.30000000e+00 
 2.17782350e-07  3.28359935e+00  3.30000000e+00 
 2.18782350e-07  3.28356434e+00  3.30000000e+00 
 2.19782350e-07  3.28359886e+00  3.30000000e+00 
 2.20782350e-07  3.28356759e+00  3.30000000e+00 
 2.21782350e-07  3.28359330e+00  3.30000000e+00 
 2.22782350e-07  3.28357486e+00  3.30000000e+00 
 2.23782350e-07  3.28358505e+00  3.30000000e+00 
 2.24782350e-07  3.28358332e+00  3.30000000e+00 
 2.25782350e-07  3.28357709e+00  3.30000000e+00 
 2.26782350e-07  3.28359017e+00  3.30000000e+00 
 2.27782350e-07  3.28357179e+00  3.30000000e+00 
 2.28782350e-07  3.28359366e+00  3.30000000e+00 
 2.29782350e-07  3.28357019e+00  3.30000000e+00 
 2.30782350e-07  3.28359347e+00  3.30000000e+00 
 2.31782350e-07  3.28357192e+00  3.30000000e+00 
 2.32782350e-07  3.28359054e+00  3.30000000e+00 
 2.33782350e-07  3.28357567e+00  3.30000000e+00 
 2.34782350e-07  3.28358638e+00  3.30000000e+00 
 2.35782350e-07  3.28357986e+00  3.30000000e+00 
 2.36782350e-07  3.28358244e+00  3.30000000e+00 
 2.37782350e-07  3.28358335e+00  3.30000000e+00 
 2.38782350e-07  3.28357952e+00  3.30000000e+00 
 2.39782350e-07  3.28358566e+00  3.30000000e+00 
 2.40782350e-07  3.28357779e+00  3.30000000e+00 
 2.41782350e-07  3.28358689e+00  3.30000000e+00 
 2.42782350e-07  3.28357696e+00  3.30000000e+00 
 2.43782350e-07  3.28358741e+00  3.30000000e+00 
 2.44782350e-07  3.28357668e+00  3.30000000e+00 
 2.45782350e-07  3.28358748e+00  3.30000000e+00 
 2.46782350e-07  3.28357682e+00  3.30000000e+00 
 2.47782350e-07  3.28358709e+00  3.30000000e+00 
 2.48782350e-07  3.28357753e+00  3.30000000e+00 
 2.49782350e-07  3.28358601e+00  3.30000000e+00 
 2.50782350e-07  3.28357904e+00  3.30000000e+00 
 2.51782350e-07  3.28358405e+00  3.30000000e+00 
 2.52782350e-07  3.28358142e+00  3.30000000e+00 
 2.53782350e-07  3.28358133e+00  3.30000000e+00 
 2.54782350e-07  3.28358435e+00  3.30000000e+00 
 2.55782350e-07  3.28357837e+00  3.30000000e+00 
 2.56782350e-07  3.28358713e+00  3.30000000e+00 
 2.57782350e-07  3.28357598e+00  3.30000000e+00 
 2.58782350e-07  3.28358892e+00  3.30000000e+00 
 2.59782350e-07  3.28357497e+00  3.30000000e+00 
 2.60782350e-07  3.28358903e+00  3.30000000e+00 
 2.61782350e-07  3.28357581e+00  3.30000000e+00 
 2.62782350e-07  3.28358728e+00  3.30000000e+00 
 2.63782350e-07  3.28357837e+00  3.30000000e+00 
 2.64782350e-07  3.28358409e+00  3.30000000e+00 
 2.65782350e-07  3.28358195e+00  3.30000000e+00 
 2.66782350e-07  3.28358038e+00  3.30000000e+00 
 2.67782350e-07  3.28358549e+00  3.30000000e+00 
 2.68782350e-07  3.28357728e+00  3.30000000e+00 
 2.69782350e-07  3.28358793e+00  3.30000000e+00 
 2.70782350e-07  3.28357567e+00  3.30000000e+00 
 2.71782350e-07  3.28358861e+00  3.30000000e+00 
 2.72782350e-07  3.28357595e+00  3.30000000e+00 
 2.73782350e-07  3.28358743e+00  3.30000000e+00 
 2.74782350e-07  3.28357789e+00  3.30000000e+00 
 2.75782350e-07  3.28358491e+00  3.30000000e+00 
 2.76782350e-07  3.28358076e+00  3.30000000e+00 
 2.77782350e-07  3.28358192e+00  3.30000000e+00 
 2.78782350e-07  3.28358363e+00  3.30000000e+00 
 2.79782350e-07  3.28357940e+00  3.30000000e+00 
 2.80782350e-07  3.28358565e+00  3.30000000e+00 
 2.81782350e-07  3.28357800e+00  3.30000000e+00 
 2.82782350e-07  3.28358636e+00  3.30000000e+00 
 2.83782350e-07  3.28357797e+00  3.30000000e+00 
 2.84782350e-07  3.28358577e+00  3.30000000e+00 
 2.85782350e-07  3.28357907e+00  3.30000000e+00 
 2.86782350e-07  3.28358428e+00  3.30000000e+00 
 2.87782350e-07  3.28358080e+00  3.30000000e+00 
 2.88782350e-07  3.28358248e+00  3.30000000e+00 
 2.89782350e-07  3.28358253e+00  3.30000000e+00 
 2.90782350e-07  3.28358095e+00  3.30000000e+00 
 2.91782350e-07  3.28358376e+00  3.30000000e+00 
 2.92782350e-07  3.28358007e+00  3.30000000e+00 
 2.93782350e-07  3.28358425e+00  3.30000000e+00 
 2.94782350e-07  3.28357996e+00  3.30000000e+00 
 2.95782350e-07  3.28358401e+00  3.30000000e+00 
 2.96782350e-07  3.28358050e+00  3.30000000e+00 
 2.97782350e-07  3.28358326e+00  3.30000000e+00 
 2.98782350e-07  3.28358139e+00  3.30000000e+00 
 2.99782350e-07  3.28358230e+00  3.30000000e+00 
 3.00782350e-07  3.28358234e+00  3.30000000e+00 
 3.01782350e-07  3.28358143e+00  3.30000000e+00 
 3.02782350e-07  3.28358308e+00  3.30000000e+00 
 3.03782350e-07  3.28358087e+00  3.30000000e+00 
 3.04782350e-07  3.28358344e+00  3.30000000e+00 
 3.05782350e-07  3.28358071e+00  3.30000000e+00 
 3.06782350e-07  3.28358339e+00  3.30000000e+00 
 3.07782350e-07  3.28358097e+00  3.30000000e+00 
 3.08782350e-07  3.28358294e+00  3.30000000e+00 
 3.09782350e-07  3.28358158e+00  3.30000000e+00 
 3.10782350e-07  3.28358221e+00  3.30000000e+00 
 3.11782350e-07  3.28358238e+00  3.30000000e+00 
 3.12782350e-07  3.28358138e+00  3.30000000e+00 
 3.13782350e-07  3.28358319e+00  3.30000000e+00 
 3.14782350e-07  3.28358064e+00  3.30000000e+00 
 3.15782350e-07  3.28358381e+00  3.30000000e+00 
 3.16782350e-07  3.28358019e+00  3.30000000e+00 
 3.17782350e-07  3.28358404e+00  3.30000000e+00 
 3.18782350e-07  3.28358021e+00  3.30000000e+00 
 3.19782350e-07  3.28358376e+00  3.30000000e+00 
 3.20782350e-07  3.28358076e+00  3.30000000e+00 
 3.21782350e-07  3.28358296e+00  3.30000000e+00 
 3.22782350e-07  3.28358179e+00  3.30000000e+00 
 3.23782350e-07  3.28358176e+00  3.30000000e+00 
 3.24782350e-07  3.28358307e+00  3.30000000e+00 
 3.25782350e-07  3.28358046e+00  3.30000000e+00 
 3.26782350e-07  3.28358431e+00  3.30000000e+00 
 3.27782350e-07  3.28357939e+00  3.30000000e+00 
 3.28782350e-07  3.28358513e+00  3.30000000e+00 
 3.29782350e-07  3.28357889e+00  3.30000000e+00 
 3.30782350e-07  3.28358525e+00  3.30000000e+00 
 3.31782350e-07  3.28357918e+00  3.30000000e+00 
 3.32782350e-07  3.28358455e+00  3.30000000e+00 
 3.33782350e-07  3.28358027e+00  3.30000000e+00 
 3.34782350e-07  3.28358313e+00  3.30000000e+00 
 3.35782350e-07  3.28358194e+00  3.30000000e+00 
 3.36782350e-07  3.28358130e+00  3.30000000e+00 
 3.37782350e-07  3.28358381e+00  3.30000000e+00 
 3.38782350e-07  3.28357951e+00  3.30000000e+00 
 3.39782350e-07  3.28358540e+00  3.30000000e+00 
 3.40782350e-07  3.28357822e+00  3.30000000e+00 
 3.41782350e-07  3.28358629e+00  3.30000000e+00 
 3.42782350e-07  3.28357780e+00  3.30000000e+00 
 3.43782350e-07  3.28358620e+00  3.30000000e+00 
 3.44782350e-07  3.28357840e+00  3.30000000e+00 
 3.45782350e-07  3.28358513e+00  3.30000000e+00 
 3.46782350e-07  3.28357990e+00  3.30000000e+00 
 3.47782350e-07  3.28358328e+00  3.30000000e+00 
 3.48782350e-07  3.28358198e+00  3.30000000e+00 
 3.49782350e-07  3.28358110e+00  3.30000000e+00 
 3.50782350e-07  3.28358414e+00  3.30000000e+00 
 3.51782350e-07  3.28357908e+00  3.30000000e+00 
 3.52782350e-07  3.28358589e+00  3.30000000e+00 
 3.53782350e-07  3.28357770e+00  3.30000000e+00 
 3.54782350e-07  3.28358682e+00  3.30000000e+00 
 3.55782350e-07  3.28357728e+00  3.30000000e+00 
 3.56782350e-07  3.28358671e+00  3.30000000e+00 
 3.57782350e-07  3.28357792e+00  3.30000000e+00 
 3.58782350e-07  3.28358558e+00  3.30000000e+00 
 3.59782350e-07  3.28357948e+00  3.30000000e+00 
 3.60782350e-07  3.28358368e+00  3.30000000e+00 
 3.61782350e-07  3.28358161e+00  3.30000000e+00 
 3.62782350e-07  3.28358143e+00  3.30000000e+00 
 3.63782350e-07  3.28358385e+00  3.30000000e+00 
 3.64782350e-07  3.28357932e+00  3.30000000e+00 
 3.65782350e-07  3.28358572e+00  3.30000000e+00 
 3.66782350e-07  3.28357779e+00  3.30000000e+00 
 3.67782350e-07  3.28358682e+00  3.30000000e+00 
 3.68782350e-07  3.28357717e+00  3.30000000e+00 
 3.69782350e-07  3.28358693e+00  3.30000000e+00 
 3.70782350e-07  3.28357759e+00  3.30000000e+00 
