 time            v(BATT)         v(INA)          v(OUT_OD)      
 1.00000000e-07  3.00000000e-04  1.87500000e-05  3.30000000e+00 
 2.00000000e-07  6.00000000e-04  3.75000000e-05  3.30000000e+00 
 4.00000000e-07  1.20000000e-03  7.50000000e-05  3.30000000e+00 
 8.00000000e-07  2.40000000e-03  1.50000000e-04  3.30000000e+00 
 1.60000000e-06  4.80000000e-03  3.00000000e-04  3.30000000e+00 
 3.20000000e-06  9.60000000e-03  6.00000000e-04  3.30000000e+00 
 6.40000000e-06  1.92000000e-02  1.20000000e-03  3.30000000e+00 
 1.00000000e-05  3.00000000e-02  1.87500000e-03  3.30000000e+00 
 1.06400000e-05  3.19200000e-02  1.99500000e-03  3.30000000e+00 
 1.19200000e-05  3.57600000e-02  2.23500000e-03  3.30000000e+00 
 1.44800000e-05  4.34400000e-02  2.71500000e-03  3.30000000e+00 
 1.96000000e-05  5.88000000e-02  3.67500000e-03  3.30000000e+00 
 2.96000000e-05  8.88000000e-02  5.55000000e-03  3.30000000e+00 
 3.96000000e-05  1.18800000e-01  7.42500000e-03  3.30000000e+00 
 4.96000000e-05  1.48800000e-01  9.30000000e-03  3.30000000e+00 
 5.96000000e-05  1.78800000e-01  1.11750000e-02  3.30000000e+00 
 6.96000000e-05  2.08800000e-01  1.30500000e-02  3.30000000e+00 
 7.96000000e-05  2.38800000e-01  1.49250000e-02  3.30000000e+00 
 8.96000000e-05  2.68800000e-01  1.68000000e-02  3.30000000e+00 
 9.96000000e-05  2.98800000e-01  1.86750000e-02  3.30000000e+00 
 1.09600000e-04  3.28800000e-01  2.05500000e-02  3.30000000e+00 
 1.19600000e-04  3.58800000e-01  2.24250000e-02  3.30000000e+00 
 1.29600000e-04  3.88800000e-01  2.43000000e-02  3.30000000e+00 
 1.39600000e-04  4.18800000e-01  2.61750000e-02  3.30000000e+00 
 1.49600000e-04  4.48800000e-01  2.80500000e-02  3.30000000e+00 
 1.59600000e-04  4.78800000e-01  2.99250000e-02  3.30000000e+00 
 1.69600000e-04  5.08800000e-01  3.18000000e-02  3.30000000e+00 
 1.79600000e-04  5.38800000e-01  3.36750000e-02  3.30000000e+00 
 1.89600000e-04  5.68800000e-01  3.55500000e-02  3.30000000e+00 
 1.99600000e-04  5.98800000e-01  3.74250000e-02  3.30000000e+00 
 2.09600000e-04  6.28800000e-01  3.93000000e-02  3.30000000e+00 
 2.19600000e-04  6.58800000e-01  4.11750000e-02  3.30000000e+00 
 2.29600000e-04  6.88800000e-01  4.30500000e-02  3.30000000e+00 
 2.39600000e-04  7.18800000e-01  4.49250000e-02  3.30000000e+00 
 2.49600000e-04  7.48800000e-01  4.68000000e-02  3.30000000e+00 
 2.59600000e-04  7.78800000e-01  4.86750000e-02  3.30000000e+00 
 2.69600000e-04  8.08800000e-01  5.05500000e-02  3.30000000e+00 
 2.79600000e-04  8.38800000e-01  5.24250000e-02  3.30000000e+00 
 2.89600000e-04  8.68800000e-01  5.43000000e-02  3.30000000e+00 
 2.99600000e-04  8.98800000e-01  5.61750000e-02  3.30000000e+00 
 3.09600000e-04  9.28800000e-01  5.80500000e-02  3.30000000e+00 
 3.19600000e-04  9.58800000e-01  5.99250000e-02  3.30000000e+00 
 3.29600000e-04  9.88800000e-01  6.18000000e-02  3.30000000e+00 
 3.39600000e-04  1.01880000e+00  6.36750000e-02  3.30000000e+00 
 3.49600000e-04  1.04880000e+00  6.55500000e-02  3.30000000e+00 
 3.59600000e-04  1.07880000e+00  6.74250000e-02  3.30000000e+00 
 3.69600000e-04  1.10880000e+00  6.93000000e-02  3.30000000e+00 
 3.79600000e-04  1.13880000e+00  7.11750000e-02  3.30000000e+00 
 3.89600000e-04  1.16880000e+00  7.30500000e-02  3.30000000e+00 
 3.99600000e-04  1.19880000e+00  7.49250000e-02  3.30000000e+00 
 4.09600000e-04  1.22880000e+00  7.68000000e-02  3.30000000e+00 
 4.19600000e-04  1.25880000e+00  7.86750000e-02  3.30000000e+00 
 4.29600000e-04  1.28880000e+00  8.05500000e-02  3.30000000e+00 
 4.39600000e-04  1.31880000e+00  8.24250000e-02  3.30000000e+00 
 4.49600000e-04  1.34880000e+00  8.43000000e-02  3.30000000e+00 
 4.59600000e-04  1.37880000e+00  8.61750000e-02  3.30000000e+00 
 4.69600000e-04  1.40880000e+00  8.80500000e-02  3.30000000e+00 
 4.79600000e-04  1.43880000e+00  8.99250000e-02  3.30000000e+00 
 4.89600000e-04  1.46880000e+00  9.18000000e-02  3.30000000e+00 
 4.99600000e-04  1.49880000e+00  9.36750000e-02  3.30000000e+00 
 5.09600000e-04  1.52880000e+00  9.55500000e-02  3.30000000e+00 
 5.19600000e-04  1.55880000e+00  9.74250000e-02  3.30000000e+00 
 5.29600000e-04  1.58880000e+00  9.93000000e-02  3.30000000e+00 
 5.39600000e-04  1.61880000e+00  1.01175000e-01  3.30000000e+00 
 5.49600000e-04  1.64880000e+00  1.03050000e-01  3.30000000e+00 
 5.59600000e-04  1.67880000e+00  1.04925000e-01  3.30000000e+00 
 5.69600000e-04  1.70880000e+00  1.06800000e-01  3.30000000e+00 
 5.79600000e-04  1.73880000e+00  1.08675000e-01  3.30000000e+00 
 5.89600000e-04  1.76880000e+00  1.10550000e-01  3.30000000e+00 
 5.99600000e-04  1.79880000e+00  1.12425000e-01  3.30000000e+00 
 6.09600000e-04  1.82880000e+00  1.14300000e-01  3.30000000e+00 
 6.19600000e-04  1.85880000e+00  1.16175000e-01  3.30000000e+00 
 6.29600000e-04  1.88880000e+00  1.18050000e-01  3.30000000e+00 
 6.39600000e-04  1.91880000e+00  1.19925000e-01  3.30000000e+00 
 6.49600000e-04  1.94880000e+00  1.21800000e-01  3.30000000e+00 
 6.59600000e-04  1.97880000e+00  1.23675000e-01  3.30000000e+00 
 6.69600000e-04  2.00880000e+00  1.25550000e-01  3.30000000e+00 
 6.79600000e-04  2.03880000e+00  1.27425000e-01  3.30000000e+00 
 6.89600000e-04  2.06880000e+00  1.29300000e-01  3.30000000e+00 
 6.99600000e-04  2.09880000e+00  1.31175000e-01  3.30000000e+00 
 7.09600000e-04  2.12880000e+00  1.33050000e-01  3.30000000e+00 
 7.19600000e-04  2.15880000e+00  1.34925000e-01  3.30000000e+00 
 7.29600000e-04  2.18880000e+00  1.36800000e-01  3.30000000e+00 
 7.39600000e-04  2.21880000e+00  1.38675000e-01  3.30000000e+00 
 7.49600000e-04  2.24880000e+00  1.40550000e-01  3.30000000e+00 
 7.59600000e-04  2.27880000e+00  1.42425000e-01  3.30000000e+00 
 7.69600000e-04  2.30880000e+00  1.44300000e-01  3.30000000e+00 
 7.79600000e-04  2.33880000e+00  1.46175000e-01  3.30000000e+00 
 7.89600000e-04  2.36880000e+00  1.48050000e-01  3.30000000e+00 
 7.99600000e-04  2.39880000e+00  1.49925000e-01  3.30000000e+00 
 8.09600000e-04  2.42880000e+00  1.51800000e-01  3.30000000e+00 
 8.19600000e-04  2.45880000e+00  1.53675000e-01  3.30000000e+00 
 8.29600000e-04  2.48880000e+00  1.55550000e-01  3.30000000e+00 
 8.39600000e-04  2.51880000e+00  1.57425000e-01  3.30000000e+00 
 8.49600000e-04  2.54880000e+00  1.59300000e-01  3.30000000e+00 
 8.59600000e-04  2.57880000e+00  1.61175000e-01  3.30000000e+00 
 8.69600000e-04  2.60880000e+00  1.63050000e-01  3.30000000e+00 
 8.79600000e-04  2.63880000e+00  1.64925000e-01  3.30000000e+00 
 8.89600000e-04  2.66880000e+00  1.66800000e-01  3.30000000e+00 
 8.99600000e-04  2.69880000e+00  1.68675000e-01  3.30000000e+00 
 9.09600000e-04  2.72880000e+00  1.70550000e-01  3.30000000e+00 
 9.19600000e-04  2.75880000e+00  1.72425000e-01  3.30000000e+00 
 9.29600000e-04  2.78880000e+00  1.74300000e-01  3.30000000e+00 
 9.39600000e-04  2.81880000e+00  1.76175000e-01  3.30000000e+00 
 9.49600000e-04  2.84880000e+00  1.78050000e-01  3.30000000e+00 
 9.59600000e-04  2.87880000e+00  1.79925000e-01  3.30000000e+00 
 9.69600000e-04  2.90880000e+00  1.81800000e-01  3.30000000e+00 
 9.79600000e-04  2.93880000e+00  1.83675000e-01  3.30000000e+00 
 9.89600000e-04  2.96880000e+00  1.85550000e-01  3.30000000e+00 
 9.99600000e-04  2.99880000e+00  1.87425000e-01  3.30000000e+00 
 1.00960000e-03  3.02880000e+00  1.89300000e-01  3.30000000e+00 
 1.01960000e-03  3.05880000e+00  1.91175000e-01  3.30000000e+00 
 1.02960000e-03  3.08880000e+00  1.93050000e-01  3.30000000e+00 
 1.03960000e-03  3.11880000e+00  1.94925000e-01  3.30000000e+00 
 1.04960000e-03  3.14880000e+00  1.96800000e-01  3.30000000e+00 
 1.05960000e-03  3.17880000e+00  1.98675000e-01  3.30000000e+00 
 1.06960000e-03  3.20880000e+00  2.00550000e-01  3.30000000e+00 
 1.07960000e-03  3.23880000e+00  2.02425000e-01  3.30000000e+00 
 1.08960000e-03  3.26880000e+00  2.04300000e-01  3.30000000e+00 
 1.09960000e-03  3.29880000e+00  2.06175000e-01  3.30000000e+00 
 1.10960000e-03  3.32880000e+00  2.08050000e-01  3.30000000e+00 
 1.11960000e-03  3.35880000e+00  2.09925000e-01  3.30000000e+00 
 1.12960000e-03  3.38880000e+00  2.11800000e-01  3.30000000e+00 
 1.13960000e-03  3.41880000e+00  2.13675000e-01  3.30000000e+00 
 1.14960000e-03  3.44880000e+00  2.15550000e-01  3.30000000e+00 
 1.15960000e-03  3.47880000e+00  2.17425000e-01  3.30000000e+00 
 1.16960000e-03  3.50880000e+00  2.19300000e-01  3.30000000e+00 
 1.17960000e-03  3.53880000e+00  2.21175000e-01  3.30000000e+00 
 1.18960000e-03  3.56880000e+00  2.23050000e-01  3.30000000e+00 
 1.19960000e-03  3.59880000e+00  2.24925000e-01  3.30000000e+00 
 1.20960000e-03  3.62880000e+00  2.26800000e-01  3.30000000e+00 
 1.21960000e-03  3.65880000e+00  2.28675000e-01  3.30000000e+00 
 1.22960000e-03  3.68880000e+00  2.30550000e-01  3.30000000e+00 
 1.23960000e-03  3.71880000e+00  2.32425000e-01  3.30000000e+00 
 1.24960000e-03  3.74880000e+00  2.34300000e-01  3.30000000e+00 
 1.25960000e-03  3.77880000e+00  2.36175000e-01  3.30000000e+00 
 1.26960000e-03  3.80880000e+00  2.38050000e-01  3.30000000e+00 
 1.27960000e-03  3.83880000e+00  2.39925000e-01  3.30000000e+00 
 1.28960000e-03  3.86880000e+00  2.41800000e-01  3.30000000e+00 
 1.29960000e-03  3.89880000e+00  2.43675000e-01  3.30000000e+00 
 1.30960000e-03  3.92880000e+00  2.45550000e-01  3.30000000e+00 
 1.31960000e-03  3.95880000e+00  2.47425000e-01  3.30000000e+00 
 1.32960000e-03  3.98880000e+00  2.49300000e-01  3.30000000e+00 
 1.33960000e-03  4.01880000e+00  2.51175000e-01  3.30000000e+00 
 1.34960000e-03  4.04880000e+00  2.53050000e-01  3.30000000e+00 
 1.35960000e-03  4.07880000e+00  2.54925000e-01  3.30000000e+00 
 1.36960000e-03  4.10880000e+00  2.56800000e-01  3.30000000e+00 
 1.37960000e-03  4.13880000e+00  2.58675000e-01  3.30000000e+00 
 1.38960000e-03  4.16880000e+00  2.60550000e-01  3.30000000e+00 
 1.39960000e-03  4.19880000e+00  2.62425000e-01  3.30000000e+00 
 1.40960000e-03  4.22880000e+00  2.64300000e-01  3.30000000e+00 
 1.41960000e-03  4.25880000e+00  2.66175000e-01  3.30000000e+00 
 1.42960000e-03  4.28880000e+00  2.68050000e-01  3.30000000e+00 
 1.43960000e-03  4.31880000e+00  2.69925000e-01  3.30000000e+00 
 1.44960000e-03  4.34880000e+00  2.71800000e-01  3.30000000e+00 
 1.45960000e-03  4.37880000e+00  2.73675000e-01  3.30000000e+00 
 1.46960000e-03  4.40880000e+00  2.75550000e-01  3.30000000e+00 
 1.47960000e-03  4.43880000e+00  2.77425000e-01  3.30000000e+00 
 1.48960000e-03  4.46880000e+00  2.79300000e-01  3.30000000e+00 
 1.49960000e-03  4.49880000e+00  2.81175000e-01  3.30000000e+00 
 1.50960000e-03  4.52880000e+00  2.83050000e-01  3.30000000e+00 
 1.51960000e-03  4.55880000e+00  2.84925000e-01  3.30000000e+00 
 1.52960000e-03  4.58880000e+00  2.86800000e-01  3.30000000e+00 
 1.53960000e-03  4.61880000e+00  2.88675000e-01  3.30000000e+00 
 1.54960000e-03  4.64880000e+00  2.90550000e-01  3.30000000e+00 
 1.55960000e-03  4.67880000e+00  2.92425000e-01  3.30000000e+00 
 1.56960000e-03  4.70880000e+00  2.94300000e-01  3.30000000e+00 
 1.57960000e-03  4.73880000e+00  2.96175000e-01  3.30000000e+00 
 1.58960000e-03  4.76880000e+00  2.98050000e-01  3.30000000e+00 
 1.59960000e-03  4.79880000e+00  2.99925000e-01  3.30000000e+00 
 1.60960000e-03  4.82880000e+00  3.01800000e-01  3.30000000e+00 
 1.61960000e-03  4.85880000e+00  3.03675000e-01  3.30000000e+00 
 1.62960000e-03  4.88880000e+00  3.05550000e-01  3.30000000e+00 
 1.63960000e-03  4.91880000e+00  3.07425000e-01  3.30000000e+00 
 1.64960000e-03  4.94880000e+00  3.09300000e-01  3.30000000e+00 
 1.65960000e-03  4.97880000e+00  3.11175000e-01  3.30000000e+00 
 1.66960000e-03  5.00880000e+00  3.13050000e-01  3.30000000e+00 
 1.67960000e-03  5.03880000e+00  3.14925000e-01  3.30000000e+00 
 1.68960000e-03  5.06880000e+00  3.16800000e-01  3.30000000e+00 
 1.69960000e-03  5.09880000e+00  3.18675000e-01  3.30000000e+00 
 1.70960000e-03  5.12880000e+00  3.20550000e-01  3.30000000e+00 
 1.71960000e-03  5.15880000e+00  3.22425000e-01  3.30000000e+00 
 1.72960000e-03  5.18880000e+00  3.24300000e-01  3.30000000e+00 
 1.73960000e-03  5.21880000e+00  3.26175000e-01  3.30000000e+00 
 1.74960000e-03  5.24880000e+00  3.28050000e-01  3.30000000e+00 
 1.75960000e-03  5.27880000e+00  3.29925000e-01  3.30000000e+00 
 1.76960000e-03  5.30880000e+00  3.31800000e-01  3.30000000e+00 
 1.77960000e-03  5.33880000e+00  3.33675000e-01  3.30000000e+00 
 1.78960000e-03  5.36880000e+00  3.35550000e-01  3.30000000e+00 
 1.79960000e-03  5.39880000e+00  3.37425000e-01  3.30000000e+00 
 1.80960000e-03  5.42880000e+00  3.39300000e-01  3.30000000e+00 
 1.81960000e-03  5.45880000e+00  3.41175000e-01  3.30000000e+00 
 1.82960000e-03  5.48880000e+00  3.43050000e-01  3.30000000e+00 
 1.83960000e-03  5.51880000e+00  3.44925000e-01  3.30000000e+00 
 1.84960000e-03  5.54880000e+00  3.46800000e-01  3.30000000e+00 
 1.85960000e-03  5.57880000e+00  3.48675000e-01  3.30000000e+00 
 1.86960000e-03  5.60880000e+00  3.50550000e-01  3.30000000e+00 
 1.87960000e-03  5.63880000e+00  3.52425000e-01  3.30000000e+00 
 1.88960000e-03  5.66880000e+00  3.54300000e-01  3.30000000e+00 
 1.89960000e-03  5.69880000e+00  3.56175000e-01  3.30000000e+00 
 1.90960000e-03  5.72880000e+00  3.58050000e-01  3.30000000e+00 
 1.91960000e-03  5.75880000e+00  3.59925000e-01  3.30000000e+00 
 1.92960000e-03  5.78880000e+00  3.61800000e-01  3.30000000e+00 
 1.93960000e-03  5.81880000e+00  3.63675000e-01  3.30000000e+00 
 1.94960000e-03  5.84880000e+00  3.65550000e-01  3.30000000e+00 
 1.95960000e-03  5.87880000e+00  3.67425000e-01  3.30000000e+00 
 1.96960000e-03  5.90880000e+00  3.69300000e-01  3.30000000e+00 
 1.97960000e-03  5.93880000e+00  3.71175000e-01  3.30000000e+00 
 1.98960000e-03  5.96880000e+00  3.73050000e-01  3.30000000e+00 
 1.99960000e-03  5.99880000e+00  3.74925000e-01  3.30000000e+00 
 2.00960000e-03  6.02880000e+00  3.76800000e-01  3.30000000e+00 
 2.01960000e-03  6.05880000e+00  3.78675000e-01  3.30000000e+00 
 2.02960000e-03  6.08880000e+00  3.80550000e-01  3.30000000e+00 
 2.03960000e-03  6.11880000e+00  3.82425000e-01  3.30000000e+00 
 2.04960000e-03  6.14880000e+00  3.84300000e-01  3.30000000e+00 
 2.05960000e-03  6.17880000e+00  3.86175000e-01  3.30000000e+00 
 2.06960000e-03  6.20880000e+00  3.88050000e-01  3.30000000e+00 
 2.07960000e-03  6.23880000e+00  3.89925000e-01  3.30000000e+00 
 2.08960000e-03  6.26880000e+00  3.91800000e-01  3.30000000e+00 
 2.09960000e-03  6.29880000e+00  3.93675000e-01  3.30000000e+00 
 2.10960000e-03  6.32880000e+00  3.95550000e-01  3.30000000e+00 
 2.11960000e-03  6.35880000e+00  3.97425000e-01  3.30000000e+00 
 2.12960000e-03  6.38880000e+00  3.99300000e-01  3.30000000e+00 
 2.13960000e-03  6.41880000e+00  4.01175000e-01  3.30000000e+00 
 2.14960000e-03  6.44880000e+00  4.03050000e-01  3.30000000e+00 
 2.15960000e-03  6.47880000e+00  4.04925000e-01  3.30000000e+00 
 2.16960000e-03  6.50880000e+00  4.06800000e-01  3.30000000e+00 
 2.17960000e-03  6.53880000e+00  4.08675000e-01  3.30000000e+00 
 2.18960000e-03  6.56880000e+00  4.10550000e-01  3.30000000e+00 
 2.19960000e-03  6.59880000e+00  4.12425000e-01  3.30000000e+00 
 2.20960000e-03  6.62880000e+00  4.14300000e-01  3.30000000e+00 
 2.21960000e-03  6.65880000e+00  4.16175000e-01  3.30000000e+00 
 2.22960000e-03  6.68880000e+00  4.18050000e-01  3.30000000e+00 
 2.23960000e-03  6.71880000e+00  4.19925000e-01  3.30000000e+00 
 2.24960000e-03  6.74880000e+00  4.21800000e-01  3.30000000e+00 
 2.25960000e-03  6.77880000e+00  4.23675000e-01  3.30000000e+00 
 2.26960000e-03  6.80880000e+00  4.25550000e-01  3.30000000e+00 
 2.27960000e-03  6.83880000e+00  4.27425000e-01  3.30000000e+00 
 2.28960000e-03  6.86880000e+00  4.29300000e-01  3.30000000e+00 
 2.29960000e-03  6.89880000e+00  4.31175000e-01  3.30000000e+00 
 2.30960000e-03  6.92880000e+00  4.33050000e-01  3.30000000e+00 
 2.31960000e-03  6.95880000e+00  4.34925000e-01  3.30000000e+00 
 2.32960000e-03  6.98880000e+00  4.36800000e-01  3.30000000e+00 
 2.33960000e-03  7.01880000e+00  4.38675000e-01  3.30000000e+00 
 2.34960000e-03  7.04880000e+00  4.40550000e-01  3.30000000e+00 
 2.35960000e-03  7.07880000e+00  4.42425000e-01  3.30000000e+00 
 2.36960000e-03  7.10880000e+00  4.44300000e-01  3.30000000e+00 
 2.37960000e-03  7.13880000e+00  4.46175000e-01  3.30000000e+00 
 2.38960000e-03  7.16880000e+00  4.48050000e-01  3.30000000e+00 
 2.39960000e-03  7.19880000e+00  4.49925000e-01  3.30000000e+00 
 2.40960000e-03  7.22880000e+00  4.51800000e-01  3.30000000e+00 
 2.41960000e-03  7.25880000e+00  4.53675000e-01  3.30000000e+00 
 2.42960000e-03  7.28880000e+00  4.55550000e-01  3.30000000e+00 
 2.43960000e-03  7.31880000e+00  4.57425000e-01  3.30000000e+00 
 2.44960000e-03  7.34880000e+00  4.59300000e-01  3.30000000e+00 
 2.45960000e-03  7.37880000e+00  4.61175000e-01  3.30000000e+00 
 2.46960000e-03  7.40880000e+00  4.63050000e-01  3.30000000e+00 
 2.47960000e-03  7.43880000e+00  4.64925000e-01  3.30000000e+00 
 2.48960000e-03  7.46880000e+00  4.66800000e-01  3.30000000e+00 
 2.49960000e-03  7.49880000e+00  4.68675000e-01  3.30000000e+00 
 2.50960000e-03  7.52880000e+00  4.70550000e-01  3.30000000e+00 
 2.51960000e-03  7.55880000e+00  4.72425000e-01  3.30000000e+00 
 2.52960000e-03  7.58880000e+00  4.74300000e-01  3.30000000e+00 
 2.53960000e-03  7.61880000e+00  4.76175000e-01  3.30000000e+00 
 2.54960000e-03  7.64880000e+00  4.78050000e-01  3.30000000e+00 
 2.55960000e-03  7.67880000e+00  4.79925000e-01  3.30000000e+00 
 2.56960000e-03  7.70880000e+00  4.81800000e-01  3.30000000e+00 
 2.57960000e-03  7.73880000e+00  4.83675000e-01  3.30000000e+00 
 2.58960000e-03  7.76880000e+00  4.85550000e-01  3.30000000e+00 
 2.59960000e-03  7.79880000e+00  4.87425000e-01  3.30000000e+00 
 2.60960000e-03  7.82880000e+00  4.89300000e-01  3.30000000e+00 
 2.61960000e-03  7.85880000e+00  4.91175000e-01  3.30000000e+00 
 2.62960000e-03  7.88880000e+00  4.93050000e-01  3.30000000e+00 
 2.63960000e-03  7.91880000e+00  4.94925000e-01  3.30000000e+00 
 2.64960000e-03  7.94880000e+00  4.96800000e-01  3.30000000e+00 
 2.65960000e-03  7.97880000e+00  4.98675000e-01  3.30000000e+00 
 2.66960000e-03  8.00880000e+00  5.00550000e-01  3.30000000e+00 
 2.67960000e-03  8.03880000e+00  5.02425000e-01  3.30000000e+00 
 2.68960000e-03  8.06880000e+00  5.04300000e-01  3.30000000e+00 
 2.69960000e-03  8.09880000e+00  5.06175000e-01  3.30000000e+00 
 2.70960000e-03  8.12880000e+00  5.08050000e-01  3.30000000e+00 
 2.71960000e-03  8.15880000e+00  5.09925000e-01  3.30000000e+00 
 2.72960000e-03  8.18880000e+00  5.11800000e-01  3.30000000e+00 
 2.73960000e-03  8.21880000e+00  5.13675000e-01  3.30000000e+00 
 2.74960000e-03  8.24880000e+00  5.15550000e-01  3.30000000e+00 
 2.75960000e-03  8.27880000e+00  5.17425000e-01  3.30000000e+00 
 2.76960000e-03  8.30880000e+00  5.19300000e-01  3.30000000e+00 
 2.77960000e-03  8.33880000e+00  5.21175000e-01  3.30000000e+00 
 2.78960000e-03  8.36880000e+00  5.23050000e-01  3.30000000e+00 
 2.79960000e-03  8.39880000e+00  5.24925000e-01  3.30000000e+00 
 2.80960000e-03  8.42880000e+00  5.26800000e-01  3.30000000e+00 
 2.81960000e-03  8.45880000e+00  5.28675000e-01  3.30000000e+00 
 2.82960000e-03  8.48880000e+00  5.30550000e-01  3.30000000e+00 
 2.83960000e-03  8.51880000e+00  5.32425000e-01  3.30000000e+00 
 2.84960000e-03  8.54880000e+00  5.34300000e-01  3.30000000e+00 
 2.85960000e-03  8.57880000e+00  5.36175000e-01  3.30000000e+00 
 2.86960000e-03  8.60880000e+00  5.38050000e-01  3.30000000e+00 
 2.87960000e-03  8.63880000e+00  5.39925000e-01  3.30000000e+00 
 2.88960000e-03  8.66880000e+00  5.41800000e-01  3.30000000e+00 
 2.89960000e-03  8.69880000e+00  5.43675000e-01  3.30000000e+00 
 2.90960000e-03  8.72880000e+00  5.45550000e-01  3.30000000e+00 
 2.91960000e-03  8.75880000e+00  5.47425000e-01  3.30000000e+00 
 2.92960000e-03  8.78880000e+00  5.49300000e-01  3.30000000e+00 
 2.93960000e-03  8.81880000e+00  5.51175000e-01  3.30000000e+00 
 2.94960000e-03  8.84880000e+00  5.53050000e-01  3.30000000e+00 
 2.95960000e-03  8.87880000e+00  5.54925000e-01  3.30000000e+00 
