 time            v(DRV_OUT)      v(GATE_INT)    
 5.00000000e-12  0.00000000e+00  0.00000000e+00 
 1.00000000e-11  0.00000000e+00  0.00000000e+00 
 2.00000000e-11  0.00000000e+00  0.00000000e+00 
 4.00000000e-11  0.00000000e+00  0.00000000e+00 
 8.00000000e-11  0.00000000e+00  0.00000000e+00 
 1.60000000e-10  0.00000000e+00  0.00000000e+00 
 3.20000000e-10  0.00000000e+00  0.00000000e+00 
 5.00000000e-10  0.00000000e+00  0.00000000e+00 
 5.32000000e-10  0.00000000e+00  0.00000000e+00 
 5.96000000e-10  0.00000000e+00  0.00000000e+00 
 7.24000000e-10  0.00000000e+00  0.00000000e+00 
 9.80000000e-10  0.00000000e+00  0.00000000e+00 
 1.48000000e-09  0.00000000e+00  0.00000000e+00 
 1.98000000e-09  0.00000000e+00  0.00000000e+00 
 2.48000000e-09  0.00000000e+00  0.00000000e+00 
 2.98000000e-09  0.00000000e+00  0.00000000e+00 
 3.48000000e-09  0.00000000e+00  0.00000000e+00 
 3.98000000e-09  0.00000000e+00  0.00000000e+00 
 4.48000000e-09  0.00000000e+00  0.00000000e+00 
 4.98000000e-09  0.00000000e+00  0.00000000e+00 
 5.48000000e-09  0.00000000e+00  0.00000000e+00 
 5.98000000e-09  0.00000000e+00  0.00000000e+00 
 6.48000000e-09  0.00000000e+00  0.00000000e+00 
 6.98000000e-09  0.00000000e+00  0.00000000e+00 
 7.48000000e-09  0.00000000e+00  0.00000000e+00 
 7.98000000e-09  0.00000000e+00  0.00000000e+00 
 8.48000000e-09  0.00000000e+00  0.00000000e+00 
 8.98000000e-09  0.00000000e+00  0.00000000e+00 
 9.48000000e-09  0.00000000e+00  0.00000000e+00 
 9.98000000e-09  0.00000000e+00  0.00000000e+00 
 1.04800000e-08  0.00000000e+00  0.00000000e+00 
 1.09800000e-08  0.00000000e+00  0.00000000e+00 
 1.14800000e-08  0.00000000e+00  0.00000000e+00 
 1.19800000e-08  0.00000000e+00  0.00000000e+00 
 1.24800000e-08  0.00000000e+00  0.00000000e+00 
 1.29800000e-08  0.00000000e+00  0.00000000e+00 
 1.34800000e-08  0.00000000e+00  0.00000000e+00 
 1.39800000e-08  0.00000000e+00  0.00000000e+00 
 1.44800000e-08  0.00000000e+00  0.00000000e+00 
 1.49800000e-08  0.00000000e+00  0.00000000e+00 
 1.54800000e-08  0.00000000e+00  0.00000000e+00 
 1.59800000e-08  0.00000000e+00  0.00000000e+00 
 1.64800000e-08  0.00000000e+00  0.00000000e+00 
 1.69800000e-08  0.00000000e+00  0.00000000e+00 
 1.74800000e-08  0.00000000e+00  0.00000000e+00 
 1.79800000e-08  0.00000000e+00  0.00000000e+00 
 1.84800000e-08  0.00000000e+00  0.00000000e+00 
 1.89800000e-08  0.00000000e+00  0.00000000e+00 
 1.94800000e-08  0.00000000e+00  0.00000000e+00 
 1.99800000e-08  0.00000000e+00  0.00000000e+00 
 2.04800000e-08  0.00000000e+00  0.00000000e+00 
 2.09800000e-08  0.00000000e+00  0.00000000e+00 
 2.14800000e-08  0.00000000e+00  0.00000000e+00 
 2.19800000e-08  0.00000000e+00  0.00000000e+00 
 2.24800000e-08  0.00000000e+00  0.00000000e+00 
 2.29800000e-08  0.00000000e+00  0.00000000e+00 
 2.34800000e-08  0.00000000e+00  0.00000000e+00 
 2.39800000e-08  0.00000000e+00  0.00000000e+00 
 2.44800000e-08  0.00000000e+00  0.00000000e+00 
 2.49800000e-08  0.00000000e+00  0.00000000e+00 
 2.54800000e-08  0.00000000e+00  0.00000000e+00 
 2.59800000e-08  0.00000000e+00  0.00000000e+00 
 2.64800000e-08  0.00000000e+00  0.00000000e+00 
 2.69800000e-08  0.00000000e+00  0.00000000e+00 
 2.74800000e-08  0.00000000e+00  0.00000000e+00 
 2.79800000e-08  0.00000000e+00  0.00000000e+00 
 2.84800000e-08  0.00000000e+00  0.00000000e+00 
 2.89800000e-08  0.00000000e+00  0.00000000e+00 
 2.94800000e-08  0.00000000e+00  0.00000000e+00 
 2.99800000e-08  0.00000000e+00  0.00000000e+00 
 3.04800000e-08  0.00000000e+00  0.00000000e+00 
 3.09800000e-08  0.00000000e+00  0.00000000e+00 
 3.14800000e-08  0.00000000e+00  0.00000000e+00 
 3.19800000e-08  0.00000000e+00  0.00000000e+00 
 3.24800000e-08  0.00000000e+00  0.00000000e+00 
 3.29800000e-08  0.00000000e+00  0.00000000e+00 
 3.34800000e-08  0.00000000e+00  0.00000000e+00 
 3.39800000e-08  0.00000000e+00  0.00000000e+00 
 3.44800000e-08  0.00000000e+00  0.00000000e+00 
 3.49800000e-08  0.00000000e+00  0.00000000e+00 
 3.54800000e-08  0.00000000e+00  0.00000000e+00 
 3.59800000e-08  0.00000000e+00  0.00000000e+00 
 3.64800000e-08  0.00000000e+00  0.00000000e+00 
 3.69800000e-08  0.00000000e+00  0.00000000e+00 
 3.74800000e-08  0.00000000e+00  0.00000000e+00 
 3.79800000e-08  0.00000000e+00  0.00000000e+00 
 3.84800000e-08  0.00000000e+00  0.00000000e+00 
 3.89800000e-08  0.00000000e+00  0.00000000e+00 
 3.94800000e-08  0.00000000e+00  0.00000000e+00 
 3.99800000e-08  0.00000000e+00  0.00000000e+00 
 4.04800000e-08  0.00000000e+00  0.00000000e+00 
 4.09800000e-08  0.00000000e+00  0.00000000e+00 
 4.14800000e-08  0.00000000e+00  0.00000000e+00 
 4.19800000e-08  0.00000000e+00  0.00000000e+00 
 4.24800000e-08  0.00000000e+00  0.00000000e+00 
 4.29800000e-08  0.00000000e+00  0.00000000e+00 
 4.34800000e-08  0.00000000e+00  0.00000000e+00 
 4.39800000e-08  0.00000000e+00  0.00000000e+00 
 4.44800000e-08  0.00000000e+00  0.00000000e+00 
 4.49800000e-08  0.00000000e+00  0.00000000e+00 
 4.54800000e-08  0.00000000e+00  0.00000000e+00 
 4.59800000e-08  0.00000000e+00  0.00000000e+00 
 4.64800000e-08  0.00000000e+00  0.00000000e+00 
 4.69800000e-08  0.00000000e+00  0.00000000e+00 
 4.74800000e-08  0.00000000e+00  0.00000000e+00 
 4.79800000e-08  0.00000000e+00  0.00000000e+00 
 4.84800000e-08  0.00000000e+00  0.00000000e+00 
 4.89800000e-08  0.00000000e+00  0.00000000e+00 
 4.94800000e-08  0.00000000e+00  0.00000000e+00 
 4.99800000e-08  0.00000000e+00  0.00000000e+00 
 5.04800000e-08  0.00000000e+00  0.00000000e+00 
 5.09800000e-08  0.00000000e+00  0.00000000e+00 
 5.14800000e-08  0.00000000e+00  0.00000000e+00 
 5.19800000e-08  0.00000000e+00  0.00000000e+00 
 5.24800000e-08  0.00000000e+00  0.00000000e+00 
 5.29800000e-08  0.00000000e+00  0.00000000e+00 
 5.34800000e-08  0.00000000e+00  0.00000000e+00 
 5.39800000e-08  0.00000000e+00  0.00000000e+00 
 5.44800000e-08  0.00000000e+00  0.00000000e+00 
 5.49800000e-08  0.00000000e+00  0.00000000e+00 
 5.54800000e-08  0.00000000e+00  0.00000000e+00 
 5.59800000e-08  0.00000000e+00  0.00000000e+00 
 5.64800000e-08  0.00000000e+00  0.00000000e+00 
 5.69800000e-08  0.00000000e+00  0.00000000e+00 
 5.74800000e-08  0.00000000e+00  0.00000000e+00 
 5.79800000e-08  0.00000000e+00  0.00000000e+00 
 5.84800000e-08  0.00000000e+00  0.00000000e+00 
 5.89800000e-08  0.00000000e+00  0.00000000e+00 
 5.94800000e-08  0.00000000e+00  0.00000000e+00 
 5.99800000e-08  0.00000000e+00  0.00000000e+00 
 6.04800000e-08  0.00000000e+00  0.00000000e+00 
 6.09800000e-08  0.00000000e+00  0.00000000e+00 
 6.14800000e-08  0.00000000e+00  0.00000000e+00 
 6.19800000e-08  0.00000000e+00  0.00000000e+00 
 6.24800000e-08  0.00000000e+00  0.00000000e+00 
 6.29800000e-08  0.00000000e+00  0.00000000e+00 
 6.34800000e-08  0.00000000e+00  0.00000000e+00 
 6.39800000e-08  0.00000000e+00  0.00000000e+00 
 6.44800000e-08  0.00000000e+00  0.00000000e+00 
 6.49800000e-08  0.00000000e+00  0.00000000e+00 
 6.54800000e-08  0.00000000e+00  0.00000000e+00 
 6.59800000e-08  0.00000000e+00  0.00000000e+00 
 6.64800000e-08  0.00000000e+00  0.00000000e+00 
 6.69800000e-08  0.00000000e+00  0.00000000e+00 
 6.74800000e-08  0.00000000e+00  0.00000000e+00 
 6.79800000e-08  0.00000000e+00  0.00000000e+00 
 6.84800000e-08  0.00000000e+00  0.00000000e+00 
 6.89800000e-08  0.00000000e+00  0.00000000e+00 
 6.94800000e-08  0.00000000e+00  0.00000000e+00 
 6.99800000e-08  0.00000000e+00  0.00000000e+00 
 7.04800000e-08  0.00000000e+00  0.00000000e+00 
 7.09800000e-08  0.00000000e+00  0.00000000e+00 
 7.14800000e-08  0.00000000e+00  0.00000000e+00 
 7.19800000e-08  0.00000000e+00  0.00000000e+00 
 7.24800000e-08  0.00000000e+00  0.00000000e+00 
 7.29800000e-08  0.00000000e+00  0.00000000e+00 
 7.34800000e-08  0.00000000e+00  0.00000000e+00 
 7.39800000e-08  0.00000000e+00  0.00000000e+00 
 7.44800000e-08  0.00000000e+00  0.00000000e+00 
 7.49800000e-08  0.00000000e+00  0.00000000e+00 
 7.54800000e-08  0.00000000e+00  0.00000000e+00 
 7.59800000e-08  0.00000000e+00  0.00000000e+00 
 7.64800000e-08  0.00000000e+00  0.00000000e+00 
 7.69800000e-08  0.00000000e+00  0.00000000e+00 
 7.74800000e-08  0.00000000e+00  0.00000000e+00 
 7.79800000e-08  0.00000000e+00  0.00000000e+00 
 7.84800000e-08  0.00000000e+00  0.00000000e+00 
 7.89800000e-08  0.00000000e+00  0.00000000e+00 
 7.94800000e-08  0.00000000e+00  0.00000000e+00 
 7.99800000e-08  0.00000000e+00  0.00000000e+00 
 8.04800000e-08  0.00000000e+00  0.00000000e+00 
 8.09800000e-08  0.00000000e+00  0.00000000e+00 
 8.14800000e-08  0.00000000e+00  0.00000000e+00 
 8.19800000e-08  0.00000000e+00  0.00000000e+00 
 8.24800000e-08  0.00000000e+00  0.00000000e+00 
 8.29800000e-08  0.00000000e+00  0.00000000e+00 
 8.34800000e-08  0.00000000e+00  0.00000000e+00 
 8.39800000e-08  0.00000000e+00  0.00000000e+00 
 8.44800000e-08  0.00000000e+00  0.00000000e+00 
 8.49800000e-08  0.00000000e+00  0.00000000e+00 
 8.54800000e-08  0.00000000e+00  0.00000000e+00 
 8.59800000e-08  0.00000000e+00  0.00000000e+00 
 8.64800000e-08  0.00000000e+00  0.00000000e+00 
 8.69800000e-08  0.00000000e+00  0.00000000e+00 
 8.74800000e-08  0.00000000e+00  0.00000000e+00 
 8.79800000e-08  0.00000000e+00  0.00000000e+00 
 8.84800000e-08  0.00000000e+00  0.00000000e+00 
 8.89800000e-08  0.00000000e+00  0.00000000e+00 
 8.94800000e-08  0.00000000e+00  0.00000000e+00 
 8.99800000e-08  0.00000000e+00  0.00000000e+00 
 9.04800000e-08  0.00000000e+00  0.00000000e+00 
 9.09800000e-08  0.00000000e+00  0.00000000e+00 
 9.14800000e-08  0.00000000e+00  0.00000000e+00 
 9.19800000e-08  0.00000000e+00  0.00000000e+00 
 9.24800000e-08  0.00000000e+00  0.00000000e+00 
 9.29800000e-08  0.00000000e+00  0.00000000e+00 
 9.34800000e-08  0.00000000e+00  0.00000000e+00 
 9.39800000e-08  0.00000000e+00  0.00000000e+00 
 9.44800000e-08  0.00000000e+00  0.00000000e+00 
 9.49800000e-08  0.00000000e+00  0.00000000e+00 
 9.54800000e-08  0.00000000e+00  0.00000000e+00 
 9.59800000e-08  0.00000000e+00  0.00000000e+00 
 9.64800000e-08  0.00000000e+00  0.00000000e+00 
 9.69800000e-08  0.00000000e+00  0.00000000e+00 
 9.74800000e-08  0.00000000e+00  0.00000000e+00 
 9.79800000e-08  0.00000000e+00  0.00000000e+00 
 9.84800000e-08  0.00000000e+00  0.00000000e+00 
 9.89800000e-08  0.00000000e+00  0.00000000e+00 
 9.94800000e-08  0.00000000e+00  0.00000000e+00 
 9.99800000e-08  0.00000000e+00  0.00000000e+00 
 1.00000000e-07  0.00000000e+00  0.00000000e+00 
 1.00000840e-07  2.01600002e-03  1.41891389e-10 
 1.00002520e-07  6.04800007e-03  9.92526345e-10 
 1.00005880e-07  1.41120002e-02  9.47470607e-09 
 1.00010078e-07  2.41868565e-02  4.37839268e-08 
 1.00018474e-07  4.43365693e-02  2.63697329e-07 
 1.00035265e-07  8.46359948e-02  1.80963752e-06 
 1.00060176e-07  1.44421802e-01  8.69025820e-06 
 1.00091078e-07  2.18587078e-01  2.90371399e-05 
 1.00139615e-07  3.35076899e-01  1.00521820e-04 
 1.00212654e-07  5.10368869e-01  3.36192442e-04 
 1.00331482e-07  7.95557733e-01  1.17237752e-03 
 1.00522993e-07  1.25518215e+00  4.06616366e-03 
 1.00856257e-07  2.05501768e+00  1.47282054e-02 
 1.01356257e-07  3.25501768e+00  4.58825378e-02 
 1.01856257e-07  4.45501768e+00  9.61098101e-02 
 1.02356257e-07  5.65501768e+00  1.65486825e-01 
 1.02856257e-07  6.85501768e+00  2.53752191e-01 
 1.03356257e-07  8.05501768e+00  3.60598890e-01 
 1.03856257e-07  9.25501768e+00  4.85717621e-01 
 1.04356257e-07  1.04550177e+01  6.28803149e-01 
 1.04856257e-07  1.16550177e+01  7.89555180e-01 
 1.05000000e-07  1.20000000e+01  8.39003107e-01 
 1.05050000e-07  1.20000000e+01  8.56598833e-01 
 1.05150000e-07  1.20000000e+01  8.92037341e-01 
 1.05350000e-07  1.20000000e+01  9.63972026e-01 
 1.05750000e-07  1.20000000e+01  1.10941128e+00 
 1.06250000e-07  1.20000000e+01  1.29075485e+00 
 1.06750000e-07  1.20000000e+01  1.46965870e+00 
 1.07250000e-07  1.20000000e+01  1.64565987e+00 
 1.07750000e-07  1.20000000e+01  1.81873212e+00 
 1.08250000e-07  1.20000000e+01  1.98891332e+00 
 1.08750000e-07  1.20000000e+01  2.15625016e+00 
 1.09250000e-07  1.20000000e+01  2.32078992e+00 
 1.09750000e-07  1.20000000e+01  2.48257933e+00 
 1.10250000e-07  1.20000000e+01  2.64166436e+00 
 1.10750000e-07  1.20000000e+01  2.79809021e+00 
 1.11250000e-07  1.20000000e+01  2.95190133e+00 
 1.11750000e-07  1.20000000e+01  3.10314143e+00 
 1.12250000e-07  1.20000000e+01  3.25185348e+00 
 1.12750000e-07  1.20000000e+01  3.39807974e+00 
 1.13250000e-07  1.20000000e+01  3.54186176e+00 
 1.13750000e-07  1.20000000e+01  3.68324040e+00 
 1.14250000e-07  1.20000000e+01  3.82225583e+00 
 1.14750000e-07  1.20000000e+01  3.95894756e+00 
 1.15250000e-07  1.20000000e+01  4.09335442e+00 
 1.15750000e-07  1.20000000e+01  4.22551460e+00 
 1.16250000e-07  1.20000000e+01  4.35546567e+00 
 1.16750000e-07  1.20000000e+01  4.48324455e+00 
 1.17250000e-07  1.20000000e+01  4.60888755e+00 
 1.17750000e-07  1.20000000e+01  4.73243036e+00 
 1.18250000e-07  1.20000000e+01  4.85390810e+00 
 1.18750000e-07  1.20000000e+01  4.97335529e+00 
 1.19250000e-07  1.20000000e+01  5.09080586e+00 
 1.19750000e-07  1.20000000e+01  5.20629319e+00 
 1.20250000e-07  1.20000000e+01  5.31985010e+00 
 1.20750000e-07  1.20000000e+01  5.43150885e+00 
 1.21250000e-07  1.20000000e+01  5.54130117e+00 
 1.21750000e-07  1.20000000e+01  5.64925827e+00 
 1.22250000e-07  1.20000000e+01  5.75541081e+00 
 1.22750000e-07  1.20000000e+01  5.85978897e+00 
 1.23250000e-07  1.20000000e+01  5.96242239e+00 
 1.23750000e-07  1.20000000e+01  6.06334025e+00 
 1.24250000e-07  1.20000000e+01  6.16257123e+00 
 1.24750000e-07  1.20000000e+01  6.26014351e+00 
 1.25250000e-07  1.20000000e+01  6.35608483e+00 
 1.25750000e-07  1.20000000e+01  6.45042244e+00 
 1.26250000e-07  1.20000000e+01  6.54318316e+00 
 1.26750000e-07  1.20000000e+01  6.63439334e+00 
 1.27250000e-07  1.20000000e+01  6.72407890e+00 
 1.27750000e-07  1.20000000e+01  6.81226532e+00 
 1.28250000e-07  1.20000000e+01  6.89897767e+00 
 1.28750000e-07  1.20000000e+01  6.98424058e+00 
 1.29250000e-07  1.20000000e+01  7.06807829e+00 
 1.29750000e-07  1.20000000e+01  7.15051460e+00 
 1.30250000e-07  1.20000000e+01  7.23157296e+00 
 1.30750000e-07  1.20000000e+01  7.31127639e+00 
 1.31250000e-07  1.20000000e+01  7.38964754e+00 
 1.31750000e-07  1.20000000e+01  7.46670868e+00 
 1.32250000e-07  1.20000000e+01  7.54248171e+00 
 1.32750000e-07  1.20000000e+01  7.61698816e+00 
 1.33250000e-07  1.20000000e+01  7.69024920e+00 
 1.33750000e-07  1.20000000e+01  7.76228564e+00 
 1.34250000e-07  1.20000000e+01  7.83311797e+00 
 1.34750000e-07  1.20000000e+01  7.90276630e+00 
 1.35250000e-07  1.20000000e+01  7.97125042e+00 
 1.35750000e-07  1.20000000e+01  8.03858981e+00 
 1.36250000e-07  1.20000000e+01  8.10480358e+00 
 1.36750000e-07  1.20000000e+01  8.16991056e+00 
 1.37250000e-07  1.20000000e+01  8.23392925e+00 
 1.37750000e-07  1.20000000e+01  8.29687783e+00 
 1.38250000e-07  1.20000000e+01  8.35877420e+00 
 1.38750000e-07  1.20000000e+01  8.41963595e+00 
 1.39250000e-07  1.20000000e+01  8.47948036e+00 
 1.39750000e-07  1.20000000e+01  8.53832445e+00 
 1.40250000e-07  1.20000000e+01  8.59618493e+00 
 1.40750000e-07  1.20000000e+01  8.65307825e+00 
 1.41250000e-07  1.20000000e+01  8.70902057e+00 
 1.41750000e-07  1.20000000e+01  8.76402778e+00 
 1.42250000e-07  1.20000000e+01  8.81811553e+00 
 1.42750000e-07  1.20000000e+01  8.87129918e+00 
 1.43250000e-07  1.20000000e+01  8.92359383e+00 
 1.43750000e-07  1.20000000e+01  8.97501436e+00 
 1.44250000e-07  1.20000000e+01  9.02557537e+00 
 1.44750000e-07  1.20000000e+01  9.07529123e+00 
 1.45250000e-07  1.20000000e+01  9.12417606e+00 
 1.45750000e-07  1.20000000e+01  9.17224377e+00 
 1.46250000e-07  1.20000000e+01  9.21950800e+00 
 1.46750000e-07  1.20000000e+01  9.26598218e+00 
 1.47250000e-07  1.20000000e+01  9.31167953e+00 
 1.47750000e-07  1.20000000e+01  9.35661303e+00 
 1.48250000e-07  1.20000000e+01  9.40079544e+00 
 1.48750000e-07  1.20000000e+01  9.44423933e+00 
 1.49250000e-07  1.20000000e+01  9.48695703e+00 
 1.49750000e-07  1.20000000e+01  9.52896068e+00 
 1.50250000e-07  1.20000000e+01  9.57026222e+00 
 1.50750000e-07  1.20000000e+01  9.61087339e+00 
 1.51250000e-07  1.20000000e+01  9.65080573e+00 
 1.51750000e-07  1.20000000e+01  9.69007057e+00 
 1.52250000e-07  1.20000000e+01  9.72867909e+00 
 1.52750000e-07  1.20000000e+01  9.76664225e+00 
 1.53250000e-07  1.20000000e+01  9.80397084e+00 
 1.53750000e-07  1.20000000e+01  9.84067546e+00 
 1.54250000e-07  1.20000000e+01  9.87676655e+00 
 1.54750000e-07  1.20000000e+01  9.91225436e+00 
 1.55250000e-07  1.20000000e+01  9.94714897e+00 
 1.55750000e-07  1.20000000e+01  9.98146031e+00 
 1.56250000e-07  1.20000000e+01  1.00151981e+01 
 1.56750000e-07  1.20000000e+01  1.00483720e+01 
 1.57250000e-07  1.20000000e+01  1.00809913e+01 
 1.57750000e-07  1.20000000e+01  1.01130654e+01 
 1.58250000e-07  1.20000000e+01  1.01446034e+01 
 1.58750000e-07  1.20000000e+01  1.01756142e+01 
 1.59250000e-07  1.20000000e+01  1.02061066e+01 
 1.59750000e-07  1.20000000e+01  1.02360894e+01 
 1.60250000e-07  1.20000000e+01  1.02655709e+01 
 1.60750000e-07  1.20000000e+01  1.02945597e+01 
 1.61250000e-07  1.20000000e+01  1.03230639e+01 
 1.61750000e-07  1.20000000e+01  1.03510916e+01 
 1.62250000e-07  1.20000000e+01  1.03786509e+01 
 1.62750000e-07  1.20000000e+01  1.04057495e+01 
 1.63250000e-07  1.20000000e+01  1.04323951e+01 
 1.63750000e-07  1.20000000e+01  1.04585953e+01 
 1.64250000e-07  1.20000000e+01  1.04843576e+01 
 1.64750000e-07  1.20000000e+01  1.05096892e+01 
 1.65250000e-07  1.20000000e+01  1.05345974e+01 
 1.65750000e-07  1.20000000e+01  1.05590893e+01 
 1.66250000e-07  1.20000000e+01  1.05831718e+01 
 1.66750000e-07  1.20000000e+01  1.06068517e+01 
 1.67250000e-07  1.20000000e+01  1.06301358e+01 
 1.67750000e-07  1.20000000e+01  1.06530307e+01 
 1.68250000e-07  1.20000000e+01  1.06755429e+01 
 1.68750000e-07  1.20000000e+01  1.06976788e+01 
 1.69250000e-07  1.20000000e+01  1.07194447e+01 
 1.69750000e-07  1.20000000e+01  1.07408467e+01 
 1.70250000e-07  1.20000000e+01  1.07618911e+01 
 1.70750000e-07  1.20000000e+01  1.07825836e+01 
 1.71250000e-07  1.20000000e+01  1.08029303e+01 
 1.71750000e-07  1.20000000e+01  1.08229368e+01 
 1.72250000e-07  1.20000000e+01  1.08426090e+01 
 1.72750000e-07  1.20000000e+01  1.08619523e+01 
 1.73250000e-07  1.20000000e+01  1.08809723e+01 
 1.73750000e-07  1.20000000e+01  1.08996743e+01 
 1.74250000e-07  1.20000000e+01  1.09180638e+01 
 1.74750000e-07  1.20000000e+01  1.09361458e+01 
 1.75250000e-07  1.20000000e+01  1.09539256e+01 
 1.75750000e-07  1.20000000e+01  1.09714082e+01 
 1.76250000e-07  1.20000000e+01  1.09885986e+01 
 1.76750000e-07  1.20000000e+01  1.10055016e+01 
 1.77250000e-07  1.20000000e+01  1.10221221e+01 
 1.77750000e-07  1.20000000e+01  1.10384648e+01 
 1.78250000e-07  1.20000000e+01  1.10545343e+01 
 1.78750000e-07  1.20000000e+01  1.10703351e+01 
 1.79250000e-07  1.20000000e+01  1.10858719e+01 
 1.79750000e-07  1.20000000e+01  1.11011490e+01 
 1.80250000e-07  1.20000000e+01  1.11161707e+01 
 1.80750000e-07  1.20000000e+01  1.11309413e+01 
 1.81250000e-07  1.20000000e+01  1.11454650e+01 
 1.81750000e-07  1.20000000e+01  1.11597459e+01 
 1.82250000e-07  1.20000000e+01  1.11737881e+01 
 1.82750000e-07  1.20000000e+01  1.11875956e+01 
 1.83250000e-07  1.20000000e+01  1.12011723e+01 
 1.83750000e-07  1.20000000e+01  1.12145221e+01 
 1.84250000e-07  1.20000000e+01  1.12276487e+01 
 1.84750000e-07  1.20000000e+01  1.12405559e+01 
 1.85250000e-07  1.20000000e+01  1.12532473e+01 
 1.85750000e-07  1.20000000e+01  1.12657267e+01 
 1.86250000e-07  1.20000000e+01  1.12779974e+01 
 1.86750000e-07  1.20000000e+01  1.12900630e+01 
 1.87250000e-07  1.20000000e+01  1.13019269e+01 
 1.87750000e-07  1.20000000e+01  1.13135925e+01 
 1.88250000e-07  1.20000000e+01  1.13250631e+01 
 1.88750000e-07  1.20000000e+01  1.13363419e+01 
 1.89250000e-07  1.20000000e+01  1.13474323e+01 
 1.89750000e-07  1.20000000e+01  1.13583372e+01 
 1.90250000e-07  1.20000000e+01  1.13690599e+01 
 1.90750000e-07  1.20000000e+01  1.13796034e+01 
