 time            v(VBUS)         v(INA)          v(HALL_OUT_DIV)
 1.00000000e-09  2.49104052e+01  1.55690032e+00  1.66702500e+00 
 2.00000000e-09  2.49103893e+01  1.55689933e+00  1.66704999e+00 
 4.00000000e-09  2.49103576e+01  1.55689735e+00  1.66709998e+00 
 8.00000000e-09  2.49102942e+01  1.55689338e+00  1.66719996e+00 
 1.60000000e-08  2.49101673e+01  1.55688546e+00  1.66739993e+00 
 3.20000000e-08  2.49099137e+01  1.55686960e+00  1.66779989e+00 
 6.40000000e-08  2.49094066e+01  1.55683791e+00  1.66859987e+00 
 1.00000000e-07  2.49088364e+01  1.55680227e+00  1.66949996e+00 
 1.06400000e-07  2.49087351e+01  1.55679594e+00  1.66965999e+00 
 1.19200000e-07  2.49085324e+01  1.55678328e+00  1.66998005e+00 
 1.44800000e-07  2.49081273e+01  1.55675796e+00  1.67062020e+00 
 1.96000000e-07  2.49073175e+01  1.55670735e+00  1.67190058e+00 
 2.96000000e-07  2.49057379e+01  1.55660862e+00  1.67440119e+00 
 3.96000000e-07  2.49041608e+01  1.55651005e+00  1.67690083e+00 
 4.96000000e-07  2.49025863e+01  1.55641164e+00  1.67939821e+00 
 5.96000000e-07  2.49010143e+01  1.55631339e+00  1.68189190e+00 
 6.96000000e-07  2.48994448e+01  1.55621530e+00  1.68438048e+00 
 7.96000000e-07  2.48978779e+01  1.55611737e+00  1.68686266e+00 
 8.96000000e-07  2.48963135e+01  1.55601959e+00  1.68933740e+00 
 9.96000000e-07  2.48947516e+01  1.55592198e+00  1.69180404e+00 
 1.09600000e-06  2.48931922e+01  1.55582452e+00  1.69426236e+00 
 1.19600000e-06  2.48916354e+01  1.55572721e+00  1.69671257e+00 
 1.29600000e-06  2.48900811e+01  1.55563007e+00  1.69915533e+00 
 1.39600000e-06  2.48885293e+01  1.55553308e+00  1.70159165e+00 
 1.49600000e-06  2.48869800e+01  1.55543625e+00  1.70402284e+00 
 1.59600000e-06  2.48854332e+01  1.55533957e+00  1.70645032e+00 
 1.69600000e-06  2.48838889e+01  1.55524305e+00  1.70887554e+00 
 1.79600000e-06  2.48823470e+01  1.55514669e+00  1.71129980e+00 
 1.89600000e-06  2.48808077e+01  1.55505048e+00  1.71372414e+00 
 1.99600000e-06  2.48792709e+01  1.55495443e+00  1.71614924e+00 
 2.09600000e-06  2.48777365e+01  1.55485853e+00  1.71857533e+00 
 2.19600000e-06  2.48762046e+01  1.55476279e+00  1.72100221e+00 
 2.29600000e-06  2.48746752e+01  1.55466720e+00  1.72342922e+00 
 2.39600000e-06  2.48731483e+01  1.55457177e+00  1.72585538e+00 
 2.49600000e-06  2.48716238e+01  1.55447649e+00  1.72827938e+00 
 2.59600000e-06  2.48701018e+01  1.55438136e+00  1.73069980e+00 
 2.69600000e-06  2.48685822e+01  1.55428639e+00  1.73311523e+00 
 2.79600000e-06  2.48670651e+01  1.55419157e+00  1.73552435e+00 
 2.89600000e-06  2.48655504e+01  1.55409690e+00  1.73792616e+00 
 2.99600000e-06  2.48640382e+01  1.55400239e+00  1.74031997e+00 
 3.09600000e-06  2.48625284e+01  1.55390803e+00  1.74270557e+00 
 3.19600000e-06  2.48610211e+01  1.55381382e+00  1.74508317e+00 
 3.29600000e-06  2.48595162e+01  1.55371976e+00  1.74745343e+00 
 3.39600000e-06  2.48580137e+01  1.55362586e+00  1.74981736e+00 
 3.49600000e-06  2.48565137e+01  1.55353210e+00  1.75217626e+00 
 3.59600000e-06  2.48550160e+01  1.55343850e+00  1.75453157e+00 
 3.69600000e-06  2.48535208e+01  1.55334505e+00  1.75688472e+00 
 3.79600000e-06  2.48520280e+01  1.55325175e+00  1.75923702e+00 
 3.89600000e-06  2.48505377e+01  1.55315860e+00  1.76158951e+00 
 3.99600000e-06  2.48490497e+01  1.55306560e+00  1.76394286e+00 
 4.09600000e-06  2.48475641e+01  1.55297276e+00  1.76629731e+00 
 4.19600000e-06  2.48460809e+01  1.55288006e+00  1.76865266e+00 
 4.29600000e-06  2.48446001e+01  1.55278751e+00  1.77100826e+00 
 4.39600000e-06  2.48431217e+01  1.55269511e+00  1.77336310e+00 
 4.49600000e-06  2.48416457e+01  1.55260286e+00  1.77571589e+00 
 4.59600000e-06  2.48401721e+01  1.55251076e+00  1.77806521e+00 
 4.69600000e-06  2.48387008e+01  1.55241880e+00  1.78040964e+00 
 4.79600000e-06  2.48372320e+01  1.55232700e+00  1.78274788e+00 
 4.89600000e-06  2.48357655e+01  1.55223534e+00  1.78507890e+00 
 4.99600000e-06  2.48343013e+01  1.55214383e+00  1.78740204e+00 
 5.09600000e-06  2.48328396e+01  1.55205247e+00  1.78971707e+00 
 5.19600000e-06  2.48313801e+01  1.55196126e+00  1.79202420e+00 
 5.29600000e-06  2.48299231e+01  1.55187019e+00  1.79432410e+00 
 5.39600000e-06  2.48284684e+01  1.55177927e+00  1.79661778e+00 
 5.49600000e-06  2.48270160e+01  1.55168850e+00  1.79890653e+00 
 5.59600000e-06  2.48255660e+01  1.55159788e+00  1.80119180e+00 
 5.69600000e-06  2.48241183e+01  1.55150740e+00  1.80347501e+00 
 5.79600000e-06  2.48226730e+01  1.55141706e+00  1.80575748e+00 
 5.89600000e-06  2.48212300e+01  1.55132688e+00  1.80804024e+00 
 5.99600000e-06  2.48197893e+01  1.55123683e+00  1.81032397e+00 
 6.09600000e-06  2.48183510e+01  1.55114694e+00  1.81260890e+00 
 6.19600000e-06  2.48169150e+01  1.55105719e+00  1.81489483e+00 
 6.29600000e-06  2.48154813e+01  1.55096758e+00  1.81718112e+00 
 6.39600000e-06  2.48140499e+01  1.55087812e+00  1.81946675e+00 
 6.49600000e-06  2.48126208e+01  1.55078880e+00  1.82175044e+00 
 6.59600000e-06  2.48111940e+01  1.55069963e+00  1.82403076e+00 
 6.69600000e-06  2.48097695e+01  1.55061060e+00  1.82630629e+00 
 6.79600000e-06  2.48083474e+01  1.55052171e+00  1.82857574e+00 
 6.89600000e-06  2.48069275e+01  1.55043297e+00  1.83083807e+00 
 6.99600000e-06  2.48055099e+01  1.55034437e+00  1.83309263e+00 
 7.09600000e-06  2.48040946e+01  1.55025591e+00  1.83533917e+00 
 7.19600000e-06  2.48026816e+01  1.55016760e+00  1.83757792e+00 
 7.29600000e-06  2.48012709e+01  1.55007943e+00  1.83980954e+00 
 7.39600000e-06  2.47998624e+01  1.54999140e+00  1.84203504e+00 
 7.49600000e-06  2.47984562e+01  1.54990352e+00  1.84425572e+00 
 7.59600000e-06  2.47970523e+01  1.54981577e+00  1.84647301e+00 
 7.69600000e-06  2.47956507e+01  1.54972817e+00  1.84868836e+00 
 7.79600000e-06  2.47942513e+01  1.54964071e+00  1.85090305e+00 
 7.89600000e-06  2.47928542e+01  1.54955339e+00  1.85311815e+00 
 7.99600000e-06  2.47914593e+01  1.54946621e+00  1.85533431e+00 
 8.09600000e-06  2.47900667e+01  1.54937917e+00  1.85755177e+00 
 8.19600000e-06  2.47886763e+01  1.54929227e+00  1.85977034e+00 
 8.29600000e-06  2.47872882e+01  1.54920551e+00  1.86198937e+00 
 8.39600000e-06  2.47859023e+01  1.54911890e+00  1.86420783e+00 
 8.49600000e-06  2.47845187e+01  1.54903242e+00  1.86642446e+00 
 8.59600000e-06  2.47831373e+01  1.54894608e+00  1.86863783e+00 
 8.69600000e-06  2.47817581e+01  1.54885988e+00  1.87084650e+00 
 8.79600000e-06  2.47803811e+01  1.54877382e+00  1.87304918e+00 
 8.89600000e-06  2.47790064e+01  1.54868790e+00  1.87524485e+00 
 8.99600000e-06  2.47776339e+01  1.54860212e+00  1.87743285e+00 
 9.09600000e-06  2.47762636e+01  1.54851647e+00  1.87961293e+00 
 9.19600000e-06  2.47748955e+01  1.54843097e+00  1.88178532e+00 
 9.29600000e-06  2.47735296e+01  1.54834560e+00  1.88395068e+00 
 9.39600000e-06  2.47721660e+01  1.54826037e+00  1.88611002e+00 
 9.49600000e-06  2.47708045e+01  1.54817528e+00  1.88826463e+00 
 9.59600000e-06  2.47694452e+01  1.54809033e+00  1.89041596e+00 
 9.69600000e-06  2.47680881e+01  1.54800551e+00  1.89256544e+00 
 9.79600000e-06  2.47667333e+01  1.54792083e+00  1.89471437e+00 
 9.89600000e-06  2.47653806e+01  1.54783628e+00  1.89686380e+00 
 9.99600000e-06  2.47640300e+01  1.54775188e+00  1.89901439e+00 
 1.00960000e-05  2.47626817e+01  1.54766761e+00  1.90116639e+00 
 1.01960000e-05  2.47613355e+01  1.54758347e+00  1.90331958e+00 
 1.02960000e-05  2.47599915e+01  1.54749947e+00  1.90547333e+00 
 1.03960000e-05  2.47586497e+01  1.54741561e+00  1.90762662e+00 
 1.04960000e-05  2.47573101e+01  1.54733188e+00  1.90977817e+00 
 1.05960000e-05  2.47559726e+01  1.54724829e+00  1.91192655e+00 
 1.06960000e-05  2.47546373e+01  1.54716483e+00  1.91407034e+00 
 1.07960000e-05  2.47533041e+01  1.54708150e+00  1.91620823e+00 
 1.08960000e-05  2.47519731e+01  1.54699832e+00  1.91833922e+00 
 1.09960000e-05  2.47506442e+01  1.54691526e+00  1.92046262e+00 
 1.10960000e-05  2.47493175e+01  1.54683234e+00  1.92257820e+00 
 1.11960000e-05  2.47479929e+01  1.54674955e+00  1.92468619e+00 
 1.12960000e-05  2.47466704e+01  1.54666690e+00  1.92678725e+00 
 1.13960000e-05  2.47453501e+01  1.54658438e+00  1.92888238e+00 
 1.14960000e-05  2.47440319e+01  1.54650199e+00  1.93097289e+00 
 1.15960000e-05  2.47427159e+01  1.54641974e+00  1.93306020e+00 
 1.16960000e-05  2.47414019e+01  1.54633762e+00  1.93514576e+00 
 1.17960000e-05  2.47400901e+01  1.54625563e+00  1.93723087e+00 
 1.18960000e-05  2.47387804e+01  1.54617378e+00  1.93931657e+00 
 1.19960000e-05  2.47374728e+01  1.54609205e+00  1.94140353e+00 
 1.20960000e-05  2.47361674e+01  1.54601046e+00  1.94349199e+00 
 1.21960000e-05  2.47348640e+01  1.54592900e+00  1.94558174e+00 
 1.22960000e-05  2.47335628e+01  1.54584767e+00  1.94767215e+00 
 1.23960000e-05  2.47322636e+01  1.54576647e+00  1.94976218e+00 
 1.24960000e-05  2.47309665e+01  1.54568541e+00  1.95185058e+00 
 1.25960000e-05  2.47296716e+01  1.54560447e+00  1.95393590e+00 
 1.26960000e-05  2.47283787e+01  1.54552367e+00  1.95601672e+00 
 1.27960000e-05  2.47270879e+01  1.54544299e+00  1.95809174e+00 
 1.28960000e-05  2.47257992e+01  1.54536245e+00  1.96015995e+00 
 1.29960000e-05  2.47245126e+01  1.54528204e+00  1.96222066e+00 
 1.30960000e-05  2.47232280e+01  1.54520175e+00  1.96427366e+00 
 1.31960000e-05  2.47219456e+01  1.54512160e+00  1.96631916e+00 
 1.32960000e-05  2.47206652e+01  1.54504157e+00  1.96835780e+00 
 1.33960000e-05  2.47193868e+01  1.54496168e+00  1.97039063e+00 
 1.34960000e-05  2.47181105e+01  1.54488191e+00  1.97241892e+00 
 1.35960000e-05  2.47168363e+01  1.54480227e+00  1.97444411e+00 
 1.36960000e-05  2.47155642e+01  1.54472276e+00  1.97646764e+00 
 1.37960000e-05  2.47142941e+01  1.54464338e+00  1.97849082e+00 
 1.38960000e-05  2.47130260e+01  1.54456413e+00  1.98051467e+00 
 1.39960000e-05  2.47117600e+01  1.54448500e+00  1.98253988e+00 
 1.40960000e-05  2.47104961e+01  1.54440600e+00  1.98456668e+00 
 1.41960000e-05  2.47092341e+01  1.54432713e+00  1.98659487e+00 
 1.42960000e-05  2.47079743e+01  1.54424839e+00  1.98862380e+00 
 1.43960000e-05  2.47067164e+01  1.54416977e+00  1.99065246e+00 
 1.44960000e-05  2.47054606e+01  1.54409129e+00  1.99267956e+00 
 1.45960000e-05  2.47042068e+01  1.54401292e+00  1.99470368e+00 
 1.46960000e-05  2.47029550e+01  1.54393469e+00  1.99672340e+00 
 1.47960000e-05  2.47017053e+01  1.54385658e+00  1.99873741e+00 
 1.48960000e-05  2.47004575e+01  1.54377860e+00  2.00074469e+00 
 1.49960000e-05  2.46992118e+01  1.54370074e+00  2.00274457e+00 
 1.50960000e-05  2.46979681e+01  1.54362301e+00  2.00473683e+00 
 1.51960000e-05  2.46967264e+01  1.54354540e+00  2.00672168e+00 
 1.52960000e-05  2.46954867e+01  1.54346792e+00  2.00869977e+00 
 1.53960000e-05  2.46942490e+01  1.54339056e+00  2.01067212e+00 
 1.54960000e-05  2.46930133e+01  1.54331333e+00  2.01264004e+00 
 1.55960000e-05  2.46917796e+01  1.54323623e+00  2.01460494e+00 
 1.56960000e-05  2.46905479e+01  1.54315925e+00  2.01656828e+00 
 1.57960000e-05  2.46893182e+01  1.54308239e+00  2.01853135e+00 
 1.58960000e-05  2.46880905e+01  1.54300565e+00  2.02049518e+00 
 1.59960000e-05  2.46868647e+01  1.54292904e+00  2.02246047e+00 
 1.60960000e-05  2.46856409e+01  1.54285256e+00  2.02442743e+00 
 1.61960000e-05  2.46844191e+01  1.54277620e+00  2.02639587e+00 
 1.62960000e-05  2.46831993e+01  1.54269996e+00  2.02836515e+00 
 1.63960000e-05  2.46819815e+01  1.54262384e+00  2.03033424e+00 
 1.64960000e-05  2.46807656e+01  1.54254785e+00  2.03230186e+00 
 1.65960000e-05  2.46795516e+01  1.54247198e+00  2.03426660e+00 
 1.66960000e-05  2.46783397e+01  1.54239623e+00  2.03622701e+00 
 1.67960000e-05  2.46771296e+01  1.54232060e+00  2.03818181e+00 
 1.68960000e-05  2.46759216e+01  1.54224510e+00  2.04012997e+00 
 1.69960000e-05  2.46747155e+01  1.54216972e+00  2.04207082e+00 
 1.70960000e-05  2.46735113e+01  1.54209446e+00  2.04400413e+00 
 1.71960000e-05  2.46723091e+01  1.54201932e+00  2.04593012e+00 
 1.72960000e-05  2.46711088e+01  1.54194430e+00  2.04784944e+00 
 1.73960000e-05  2.46699105e+01  1.54186940e+00  2.04976312e+00 
 1.74960000e-05  2.46687141e+01  1.54179463e+00  2.05167244e+00 
 1.75960000e-05  2.46675196e+01  1.54171997e+00  2.05357884e+00 
 1.76960000e-05  2.46663270e+01  1.54164544e+00  2.05548376e+00 
 1.77960000e-05  2.46651364e+01  1.54157103e+00  2.05738850e+00 
 1.78960000e-05  2.46639477e+01  1.54149673e+00  2.05929410e+00 
 1.79960000e-05  2.46627609e+01  1.54142256e+00  2.06120122e+00 
 1.80960000e-05  2.46615761e+01  1.54134850e+00  2.06311012e+00 
 1.81960000e-05  2.46603931e+01  1.54127457e+00  2.06502058e+00 
 1.82960000e-05  2.46592121e+01  1.54120075e+00  2.06693196e+00 
 1.83960000e-05  2.46580329e+01  1.54112706e+00  2.06884324e+00 
 1.84960000e-05  2.46568557e+01  1.54105348e+00  2.07075315e+00 
 1.85960000e-05  2.46556804e+01  1.54098002e+00  2.07266025e+00 
 1.86960000e-05  2.46545069e+01  1.54090668e+00  2.07456312e+00 
 1.87960000e-05  2.46533354e+01  1.54083346e+00  2.07646046e+00 
 1.88960000e-05  2.46521657e+01  1.54076036e+00  2.07835124e+00 
 1.89960000e-05  2.46509980e+01  1.54068737e+00  2.08023480e+00 
 1.90960000e-05  2.46498321e+01  1.54061451e+00  2.08211091e+00 
 1.91960000e-05  2.46486681e+01  1.54054176e+00  2.08397978e+00 
 1.92960000e-05  2.46475060e+01  1.54046912e+00  2.08584207e+00 
 1.93960000e-05  2.46463457e+01  1.54039661e+00  2.08769880e+00 
 1.94960000e-05  2.46451874e+01  1.54032421e+00  2.08955126e+00 
 1.95960000e-05  2.46440309e+01  1.54025193e+00  2.09140089e+00 
 1.96960000e-05  2.46428763e+01  1.54017977e+00  2.09324912e+00 
 1.97960000e-05  2.46417235e+01  1.54010772e+00  2.09509725e+00 
 1.98960000e-05  2.46405726e+01  1.54003579e+00  2.09694632e+00 
 1.99960000e-05  2.46394235e+01  1.53996397e+00  2.09879702e+00 
 2.00960000e-05  2.46382763e+01  1.53989227e+00  2.10064956e+00 
 2.01960000e-05  2.46371310e+01  1.53982069e+00  2.10250376e+00 
 2.02960000e-05  2.46359875e+01  1.53974922e+00  2.10435895e+00 
 2.03960000e-05  2.46348459e+01  1.53967787e+00  2.10621414e+00 
 2.04960000e-05  2.46337060e+01  1.53960663e+00  2.10806803e+00 
 2.05960000e-05  2.46325681e+01  1.53953551e+00  2.10991920e+00 
 2.06960000e-05  2.46314320e+01  1.53946450e+00  2.11176622e+00 
 2.07960000e-05  2.46302977e+01  1.53939360e+00  2.11360780e+00 
 2.08960000e-05  2.46291652e+01  1.53932282e+00  2.11544290e+00 
 2.09960000e-05  2.46280346e+01  1.53925216e+00  2.11727087e+00 
 2.10960000e-05  2.46269058e+01  1.53918161e+00  2.11909146e+00 
 2.11960000e-05  2.46257788e+01  1.53911117e+00  2.12090491e+00 
 2.12960000e-05  2.46246536e+01  1.53904085e+00  2.12271185e+00 
 2.13960000e-05  2.46235302e+01  1.53897064e+00  2.12451332e+00 
 2.14960000e-05  2.46224087e+01  1.53890054e+00  2.12631060e+00 
 2.15960000e-05  2.46212890e+01  1.53883056e+00  2.12810512e+00 
 2.16960000e-05  2.46201711e+01  1.53876069e+00  2.12989834e+00 
 2.17960000e-05  2.46190549e+01  1.53869093e+00  2.13169154e+00 
 2.18960000e-05  2.46179406e+01  1.53862129e+00  2.13348576e+00 
 2.19960000e-05  2.46168281e+01  1.53855176e+00  2.13528168e+00 
 2.20960000e-05  2.46157174e+01  1.53848234e+00  2.13707955e+00 
 2.21960000e-05  2.46146085e+01  1.53841303e+00  2.13887914e+00 
 2.22960000e-05  2.46135013e+01  1.53834383e+00  2.14067981e+00 
 2.23960000e-05  2.46123960e+01  1.53827475e+00  2.14248055e+00 
 2.24960000e-05  2.46112924e+01  1.53820578e+00  2.14428009e+00 
 2.25960000e-05  2.46101906e+01  1.53813691e+00  2.14607698e+00 
 2.26960000e-05  2.46090906e+01  1.53806816e+00  2.14786980e+00 
 2.27960000e-05  2.46079924e+01  1.53799952e+00  2.14965727e+00 
 2.28960000e-05  2.46068959e+01  1.53793100e+00  2.15143834e+00 
 2.29960000e-05  2.46058013e+01  1.53786258e+00  2.15321235e+00 
 2.30960000e-05  2.46047083e+01  1.53779427e+00  2.15497907e+00 
 2.31960000e-05  2.46036172e+01  1.53772607e+00  2.15673873e+00 
 2.32960000e-05  2.46025278e+01  1.53765799e+00  2.15849196e+00 
 2.33960000e-05  2.46014401e+01  1.53759001e+00  2.16023980e+00 
 2.34960000e-05  2.46003543e+01  1.53752214e+00  2.16198353e+00 
 2.35960000e-05  2.45992701e+01  1.53745438e+00  2.16372459e+00 
 2.36960000e-05  2.45981878e+01  1.53738674e+00  2.16546441e+00 
 2.37960000e-05  2.45971071e+01  1.53731920e+00  2.16720430e+00 
 2.38960000e-05  2.45960282e+01  1.53725177e+00  2.16894530e+00 
 2.39960000e-05  2.45949511e+01  1.53718444e+00  2.17068807e+00 
 2.40960000e-05  2.45938757e+01  1.53711723e+00  2.17243286e+00 
 2.41960000e-05  2.45928020e+01  1.53705013e+00  2.17417946e+00 
 2.42960000e-05  2.45917301e+01  1.53698313e+00  2.17592722e+00 
 2.43960000e-05  2.45906599e+01  1.53691624e+00  2.17767514e+00 
 2.44960000e-05  2.45895914e+01  1.53684946e+00  2.17942192e+00 
 2.45960000e-05  2.45885247e+01  1.53678279e+00  2.18116614e+00 
 2.46960000e-05  2.45874596e+01  1.53671623e+00  2.18290637e+00 
 2.47960000e-05  2.45863963e+01  1.53664977e+00  2.18464131e+00 
 2.48960000e-05  2.45853347e+01  1.53658342e+00  2.18636995e+00 
 2.49960000e-05  2.45842748e+01  1.53651718e+00  2.18809160e+00 
 2.50960000e-05  2.45832167e+01  1.53645104e+00  2.18980605e+00 
 2.51960000e-05  2.45821602e+01  1.53638501e+00  2.19151350e+00 
 2.52960000e-05  2.45811054e+01  1.53631909e+00  2.19321461e+00 
 2.53960000e-05  2.45800524e+01  1.53625327e+00  2.19491040e+00 
 2.54960000e-05  2.45790010e+01  1.53618756e+00  2.19660216e+00 
 2.55960000e-05  2.45779514e+01  1.53612196e+00  2.19829133e+00 
 2.56960000e-05  2.45769034e+01  1.53605646e+00  2.19997935e+00 
 2.57960000e-05  2.45758571e+01  1.53599107e+00  2.20166750e+00 
 2.58960000e-05  2.45748126e+01  1.53592578e+00  2.20335684e+00 
 2.59960000e-05  2.45737697e+01  1.53586060e+00  2.20504804e+00 
 2.60960000e-05  2.45727284e+01  1.53579553e+00  2.20674133e+00 
 2.61960000e-05  2.45716889e+01  1.53573056e+00  2.20843650e+00 
 2.62960000e-05  2.45706511e+01  1.53566569e+00  2.21013292e+00 
 2.63960000e-05  2.45696149e+01  1.53560093e+00  2.21182956e+00 
 2.64960000e-05  2.45685804e+01  1.53553627e+00  2.21352515e+00 
 2.65960000e-05  2.45675475e+01  1.53547172e+00  2.21521825e+00 
 2.66960000e-05  2.45665164e+01  1.53540727e+00  2.21690744e+00 
 2.67960000e-05  2.45654869e+01  1.53534293e+00  2.21859142e+00 
 2.68960000e-05  2.45644590e+01  1.53527869e+00  2.22026917e+00 
 2.69960000e-05  2.45634328e+01  1.53521455e+00  2.22194002e+00 
 2.70960000e-05  2.45624083e+01  1.53515052e+00  2.22360373e+00 
 2.71960000e-05  2.45613854e+01  1.53508659e+00  2.22526052e+00 
 2.72960000e-05  2.45603642e+01  1.53502276e+00  2.22691105e+00 
 2.73960000e-05  2.45593446e+01  1.53495904e+00  2.22855633e+00 
 2.74960000e-05  2.45583267e+01  1.53489542e+00  2.23019766e+00 
 2.75960000e-05  2.45573104e+01  1.53483190e+00  2.23183648e+00 
 2.76960000e-05  2.45562958e+01  1.53476849e+00  2.23347421e+00 
 2.77960000e-05  2.45552828e+01  1.53470517e+00  2.23511216e+00 
 2.78960000e-05  2.45542714e+01  1.53464196e+00  2.23675137e+00 
 2.79960000e-05  2.45532617e+01  1.53457885e+00  2.23839251e+00 
 2.80960000e-05  2.45522536e+01  1.53451585e+00  2.24003582e+00 
 2.81960000e-05  2.45512471e+01  1.53445294e+00  2.24168110e+00 
 2.82960000e-05  2.45502422e+01  1.53439014e+00  2.24332768e+00 
 2.83960000e-05  2.45492390e+01  1.53432744e+00  2.24497457e+00 
 2.84960000e-05  2.45482374e+01  1.53426484e+00  2.24662048e+00 
 2.85960000e-05  2.45472374e+01  1.53420234e+00  2.24826397e+00 
 2.86960000e-05  2.45462390e+01  1.53413994e+00  2.24990363e+00 
 2.87960000e-05  2.45452422e+01  1.53407764e+00  2.25153816e+00 
 2.88960000e-05  2.45442470e+01  1.53401544e+00  2.25316652e+00 
 2.89960000e-05  2.45432535e+01  1.53395334e+00  2.25478806e+00 
 2.90960000e-05  2.45422615e+01  1.53389135e+00  2.25640253e+00 
 2.91960000e-05  2.45412712e+01  1.53382945e+00  2.25801016e+00 
 2.92960000e-05  2.45402824e+01  1.53376765e+00  2.25961161e+00 
 2.93960000e-05  2.45392953e+01  1.53370595e+00  2.26120788e+00 
 2.94960000e-05  2.45383097e+01  1.53364436e+00  2.26280027e+00 
 2.95960000e-05  2.45373257e+01  1.53358286e+00  2.26439021e+00 
