 time            v(VBUS)         v(INA)          v(HALL_VOUT)    v(HALL_OUT_DIV)
 1.00000000e-08  2.52004335e+01  1.57468460e+00  2.50088491e+00  2.50050984e-04 
 1.02800387e-08  2.52004457e+01  1.57468536e+00  2.49975209e+00  2.57050177e-04 
 1.08401161e-08  2.52004700e+01  1.57468688e+00  2.49974806e+00  2.71048494e-04 
 1.19602708e-08  2.52005185e+01  1.57468991e+00  2.49975209e+00  2.99044774e-04 
 1.42005804e-08  2.52006157e+01  1.57469598e+00  2.49974807e+00  3.55035923e-04 
 1.86811995e-08  2.52008099e+01  1.57470812e+00  2.49975210e+00  4.67012578e-04 
 2.76424376e-08  2.52011984e+01  1.57473240e+00  2.49974811e+00  6.90943313e-04 
 4.55649140e-08  2.52019754e+01  1.57478095e+00  2.49975217e+00  1.13871450e-03 
 8.14098666e-08  2.52035293e+01  1.57487805e+00  2.49974824e+00  2.03389586e-03 
 1.53099772e-07  2.52066366e+01  1.57507221e+00  2.49975244e+00  3.82281551e-03 
 2.96479583e-07  2.52128469e+01  1.57546027e+00  2.49974878e+00  7.39489026e-03 
 5.83239204e-07  2.52252348e+01  1.57623434e+00  2.49975351e+00  1.45160434e-02 
 1.00000000e-06  2.52430977e+01  1.57735053e+00  2.49975052e+00  2.48111047e-02 
 1.05735192e-06  2.52455375e+01  1.57750299e+00  2.49975267e+00  2.62222025e-02 
 1.17205577e-06  2.52504009e+01  1.57780688e+00  2.49975295e+00  2.90419726e-02 
 1.40146347e-06  2.52600547e+01  1.57841012e+00  2.49975351e+00  3.46669840e-02 
 1.86027886e-06  2.52790078e+01  1.57959442e+00  2.49975463e+00  4.58591408e-02 
 2.77790965e-06  2.53150049e+01  1.58184375e+00  2.49975684e+00  6.80139680e-02 
 3.77790965e-06  2.53502910e+01  1.58404865e+00  2.49975922e+00  9.18128472e-02 
 4.77790965e-06  2.53802529e+01  1.58592087e+00  2.49976156e+00  1.15257424e-01 
 5.77790965e-06  2.54038294e+01  1.58739408e+00  2.49976387e+00  1.38352973e-01 
 6.77790965e-06  2.54201851e+01  1.58841609e+00  2.49976614e+00  1.61104691e-01 
 7.77790965e-06  2.54287406e+01  1.58895069e+00  2.49976838e+00  1.83517696e-01 
 8.77790965e-06  2.54291929e+01  1.58897895e+00  2.49977058e+00  2.05597030e-01 
 9.77790965e-06  2.54215259e+01  1.58849987e+00  2.49977275e+00  2.27347661e-01 
 1.07779097e-05  2.54060113e+01  1.58753042e+00  2.49977489e+00  2.48774484e-01 
 1.17779097e-05  2.53831987e+01  1.58610494e+00  2.49977700e+00  2.69882317e-01 
 1.27779097e-05  2.53538961e+01  1.58427393e+00  2.49977907e+00  2.90675911e-01 
 1.37779097e-05  2.53191418e+01  1.58210225e+00  2.49978112e+00  3.11159943e-01 
 1.47779097e-05  2.52801667e+01  1.57966684e+00  2.49978314e+00  3.31339022e-01 
 1.57779097e-05  2.52383517e+01  1.57705397e+00  2.49978512e+00  3.51217688e-01 
 1.67779097e-05  2.51951781e+01  1.57435621e+00  2.49978708e+00  3.70800413e-01 
 1.77779097e-05  2.51521754e+01  1.57166912e+00  2.49978901e+00  3.90091603e-01 
 1.87779097e-05  2.51108668e+01  1.56908790e+00  2.49979091e+00  4.09095599e-01 
 1.97779097e-05  2.50727158e+01  1.56670398e+00  2.49979278e+00  4.27816675e-01 
 2.07779097e-05  2.50390739e+01  1.56460182e+00  2.49979463e+00  4.46259044e-01 
 2.17779097e-05  2.50111329e+01  1.56285588e+00  2.49979645e+00  4.64426856e-01 
 2.27779097e-05  2.49898826e+01  1.56152803e+00  2.49979824e+00  4.82324196e-01 
 2.37779097e-05  2.49760757e+01  1.56066529e+00  2.49980001e+00  4.99955093e-01 
 2.47779097e-05  2.49702015e+01  1.56029823e+00  2.49980175e+00  5.17323512e-01 
 2.57779097e-05  2.49724681e+01  1.56043986e+00  2.49980347e+00  5.34433362e-01 
 2.67779097e-05  2.49827950e+01  1.56108515e+00  2.49980516e+00  5.51288491e-01 
 2.77779097e-05  2.50008165e+01  1.56221125e+00  2.49980682e+00  5.67892692e-01 
 2.87779097e-05  2.50258942e+01  1.56377826e+00  2.49980846e+00  5.84249700e-01 
 2.97779097e-05  2.50571396e+01  1.56573068e+00  2.49981007e+00  6.00363196e-01 
 3.07779097e-05  2.50934460e+01  1.56799933e+00  2.49981166e+00  6.16236805e-01 
 3.17779097e-05  2.51335270e+01  1.57050386e+00  2.49981323e+00  6.31874098e-01 
 3.27779097e-05  2.51759629e+01  1.57315552e+00  2.49981477e+00  6.47278592e-01 
 3.37779097e-05  2.52192504e+01  1.57586040e+00  2.49981629e+00  6.62453755e-01 
 3.47779097e-05  2.52618558e+01  1.57852266e+00  2.49981778e+00  6.77403000e-01 
 3.57779097e-05  2.53022700e+01  1.58104800e+00  2.49981925e+00  6.92129690e-01 
 3.67779097e-05  2.53390613e+01  1.58334695e+00  2.49982070e+00  7.06637138e-01 
 3.77779097e-05  2.53709262e+01  1.58533808e+00  2.49982213e+00  7.20928609e-01 
 3.87779097e-05  2.53967360e+01  1.58695084e+00  2.49982353e+00  7.35007318e-01 
 3.97779097e-05  2.54155763e+01  1.58812810e+00  2.49982491e+00  7.48876432e-01 
 4.07779097e-05  2.54267798e+01  1.58882817e+00  2.49982627e+00  7.62539072e-01 
 4.17779097e-05  2.54299495e+01  1.58902623e+00  2.49982762e+00  7.75998311e-01 
 4.27779097e-05  2.54249731e+01  1.58871527e+00  2.49982894e+00  7.89257177e-01 
 4.37779097e-05  2.54120269e+01  1.58790631e+00  2.49983024e+00  8.02318655e-01 
 4.47779097e-05  2.53915696e+01  1.58662801e+00  2.49983152e+00  8.15185681e-01 
 4.57779097e-05  2.53643259e+01  1.58492565e+00  2.49983279e+00  8.27861151e-01 
 4.67779097e-05  2.53312608e+01  1.58285953e+00  2.49983403e+00  8.40347917e-01 
 4.77779097e-05  2.52935458e+01  1.58050285e+00  2.49983526e+00  8.52648788e-01 
 4.87779097e-05  2.52525169e+01  1.57793910e+00  2.49983647e+00  8.64766532e-01 
 4.97779097e-05  2.52096275e+01  1.57525910e+00  2.49983766e+00  8.76703875e-01 
 5.07779097e-05  2.51663971e+01  1.57255779e+00  2.49983884e+00  8.88463502e-01 
 5.17779097e-05  2.51243571e+01  1.56993086e+00  2.49984000e+00  9.00048060e-01 
 5.27779097e-05  2.50849967e+01  1.56747137e+00  2.49984114e+00  9.11460154e-01 
 5.37779097e-05  2.50497104e+01  1.56526646e+00  2.49984227e+00  9.22702352e-01 
 5.47779097e-05  2.50197482e+01  1.56339422e+00  2.49984338e+00  9.33777184e-01 
 5.57779097e-05  2.49961715e+01  1.56192100e+00  2.49984447e+00  9.44687141e-01 
 5.67779097e-05  2.49798155e+01  1.56089897e+00  2.49984555e+00  9.55434677e-01 
 5.77779097e-05  2.49712596e+01  1.56036434e+00  2.49984662e+00  9.66022211e-01 
 5.87779097e-05  2.49708069e+01  1.56033606e+00  2.49984766e+00  9.76452125e-01 
 5.97779097e-05  2.49784736e+01  1.56081512e+00  2.49984869e+00  9.86726765e-01 
 6.07779097e-05  2.49939878e+01  1.56178455e+00  2.49984971e+00  9.96848443e-01 
 6.17779097e-05  2.50168002e+01  1.56321001e+00  2.49985071e+00  1.00681944e+00 
 6.27779097e-05  2.50461025e+01  1.56504101e+00  2.49985170e+00  1.01664199e+00 
 6.37779097e-05  2.50808567e+01  1.56721267e+00  2.49985267e+00  1.02631831e+00 
 6.47779097e-05  2.51198316e+01  1.56964807e+00  2.49985362e+00  1.03585057e+00 
 6.57779097e-05  2.51616465e+01  1.57226094e+00  2.49985456e+00  1.04524093e+00 
 6.67779097e-05  2.52048200e+01  1.57495870e+00  2.49985549e+00  1.05449148e+00 
 6.77779097e-05  2.52478229e+01  1.57764579e+00  2.49985640e+00  1.06360432e+00 
 6.87779097e-05  2.52891315e+01  1.58022702e+00  2.49985729e+00  1.07258150e+00 
 6.97779097e-05  2.53272827e+01  1.58261095e+00  2.49985817e+00  1.08142503e+00 
 7.07779097e-05  2.53609248e+01  1.58471312e+00  2.49985904e+00  1.09013690e+00 
 7.17779097e-05  2.53888661e+01  1.58645908e+00  2.49985990e+00  1.09871907e+00 
 7.27779097e-05  2.54101167e+01  1.58778695e+00  2.49986074e+00  1.10717348e+00 
 7.37779097e-05  2.54239238e+01  1.58864971e+00  2.49986157e+00  1.11550203e+00 
 7.47779097e-05  2.54297984e+01  1.58901679e+00  2.49986239e+00  1.12370658e+00 
 7.57779097e-05  2.54275322e+01  1.58887518e+00  2.49986319e+00  1.13178899e+00 
 7.67779097e-05  2.54172056e+01  1.58822991e+00  2.49986398e+00  1.13975108e+00 
 7.77779097e-05  2.53991844e+01  1.58710383e+00  2.49986476e+00  1.14759463e+00 
 7.87779097e-05  2.53741070e+01  1.58553683e+00  2.49986553e+00  1.15532141e+00 
 7.97779097e-05  2.53428618e+01  1.58358443e+00  2.49986629e+00  1.16293316e+00 
 8.07779097e-05  2.53065556e+01  1.58131579e+00  2.49986704e+00  1.17043159e+00 
 8.17779097e-05  2.52664747e+01  1.57881128e+00  2.49986777e+00  1.17781839e+00 
 8.27779097e-05  2.52240389e+01  1.57615961e+00  2.49986850e+00  1.18509522e+00 
 8.37779097e-05  2.51807515e+01  1.57345474e+00  2.49986922e+00  1.19226372e+00 
 8.47779097e-05  2.51381459e+01  1.57079247e+00  2.49986992e+00  1.19932549e+00 
 8.57779097e-05  2.50977316e+01  1.56826713e+00  2.49987062e+00  1.20628214e+00 
 8.67779097e-05  2.50609402e+01  1.56596816e+00  2.49987131e+00  1.21313522e+00 
 8.77779097e-05  2.50290750e+01  1.56397702e+00  2.49987199e+00  1.21988627e+00 
 8.87779097e-05  2.50032649e+01  1.56236424e+00  2.49987266e+00  1.22653682e+00 
 8.97779097e-05  2.49844243e+01  1.56118696e+00  2.49987331e+00  1.23308837e+00 
 9.07779097e-05  2.49732205e+01  1.56048688e+00  2.49987396e+00  1.23954237e+00 
 9.17779097e-05  2.49700505e+01  1.56028879e+00  2.49987460e+00  1.24590029e+00 
 9.27779097e-05  2.49750265e+01  1.56059973e+00  2.49987523e+00  1.25216356e+00 
 9.37779097e-05  2.49879724e+01  1.56140867e+00  2.49987585e+00  1.25833359e+00 
 9.47779097e-05  2.50084294e+01  1.56268695e+00  2.49987647e+00  1.26441176e+00 
 9.57779097e-05  2.50356728e+01  1.56438930e+00  2.49987707e+00  1.27039945e+00 
 9.67779097e-05  2.50687377e+01  1.56645540e+00  2.49987766e+00  1.27629799e+00 
 9.77779097e-05  2.51064525e+01  1.56881207e+00  2.49987824e+00  1.28210872e+00 
 9.87779097e-05  2.51474813e+01  1.57137581e+00  2.49987882e+00  1.28783294e+00 
 9.97779097e-05  2.51903707e+01  1.57405581e+00  2.49987938e+00  1.29347195e+00 
 1.00777910e-04  2.52336011e+01  1.57675712e+00  2.49987994e+00  1.29902700e+00 
 1.01777910e-04  2.52756412e+01  1.57938406e+00  2.49988048e+00  1.30449935e+00 
 1.02777910e-04  2.53150017e+01  1.58184355e+00  2.49988102e+00  1.30989024e+00 
 1.03777910e-04  2.53502882e+01  1.58404848e+00  2.49988155e+00  1.31520087e+00 
 1.04777910e-04  2.53802507e+01  1.58592073e+00  2.49988207e+00  1.32043244e+00 
 1.05777910e-04  2.54038277e+01  1.58739397e+00  2.49988258e+00  1.32558612e+00 
 1.06777910e-04  2.54201840e+01  1.58841602e+00  2.49988308e+00  1.33066308e+00 
 1.07777910e-04  2.54287402e+01  1.58895067e+00  2.49988358e+00  1.33566446e+00 
 1.08777910e-04  2.54291932e+01  1.58897897e+00  2.49988407e+00  1.34059138e+00 
 1.09777910e-04  2.54215269e+01  1.58849993e+00  2.49988455e+00  1.34544495e+00 
 1.10777910e-04  2.54060130e+01  1.58753052e+00  2.49988502e+00  1.35022626e+00 
 1.11777910e-04  2.53832009e+01  1.58610508e+00  2.49988549e+00  1.35493639e+00 
 1.12777910e-04  2.53538989e+01  1.58427410e+00  2.49988595e+00  1.35957641e+00 
 1.13777910e-04  2.53191449e+01  1.58210245e+00  2.49988641e+00  1.36414734e+00 
 1.14777910e-04  2.52801702e+01  1.57966706e+00  2.49988686e+00  1.36865022e+00 
 1.15777910e-04  2.52383554e+01  1.57705420e+00  2.49988730e+00  1.37308607e+00 
 1.16777910e-04  2.51951818e+01  1.57435644e+00  2.49988774e+00  1.37745588e+00 
 1.17777910e-04  2.51521789e+01  1.57166935e+00  2.49988817e+00  1.38176064e+00 
 1.18777910e-04  2.51108702e+01  1.56908811e+00  2.49988859e+00  1.38600131e+00 
 1.19777910e-04  2.50727188e+01  1.56670417e+00  2.49988901e+00  1.39017884e+00 
 1.20777910e-04  2.50390765e+01  1.56460198e+00  2.49988942e+00  1.39429419e+00 
 1.21777910e-04  2.50111350e+01  1.56285601e+00  2.49988983e+00  1.39834827e+00 
 1.22777910e-04  2.49898840e+01  1.56152812e+00  2.49989024e+00  1.40234199e+00 
 1.23777910e-04  2.49760766e+01  1.56066534e+00  2.49989063e+00  1.40627626e+00 
 1.24777910e-04  2.49702017e+01  1.56029824e+00  2.49989103e+00  1.41015195e+00 
 1.25777910e-04  2.49724675e+01  1.56043982e+00  2.49989141e+00  1.41396995e+00 
 1.26777910e-04  2.49827938e+01  1.56108508e+00  2.49989179e+00  1.41773111e+00 
 1.27777910e-04  2.50008147e+01  1.56221114e+00  2.49989217e+00  1.42143627e+00 
 1.28777910e-04  2.50258918e+01  1.56377812e+00  2.49989253e+00  1.42508628e+00 
 1.29777910e-04  2.50571368e+01  1.56573050e+00  2.49989290e+00  1.42868194e+00 
 1.30777910e-04  2.50934427e+01  1.56799913e+00  2.49989325e+00  1.43222408e+00 
 1.31777910e-04  2.51335235e+01  1.57050364e+00  2.49989360e+00  1.43571348e+00 
 1.32777910e-04  2.51759593e+01  1.57315530e+00  2.49989395e+00  1.43915094e+00 
 1.33777910e-04  2.52192467e+01  1.57586017e+00  2.49989429e+00  1.44253722e+00 
 1.34777910e-04  2.52618523e+01  1.57852244e+00  2.49989462e+00  1.44587308e+00 
 1.35777910e-04  2.53022668e+01  1.58104779e+00  2.49989495e+00  1.44915929e+00 
 1.36777910e-04  2.53390584e+01  1.58334677e+00  2.49989527e+00  1.45239657e+00 
 1.37777910e-04  2.53709238e+01  1.58533792e+00  2.49989558e+00  1.45558566e+00 
 1.38777910e-04  2.53967341e+01  1.58695072e+00  2.49989589e+00  1.45872727e+00 
 1.39777910e-04  2.54155751e+01  1.58812802e+00  2.49989620e+00  1.46182211e+00 
 1.40777910e-04  2.54267792e+01  1.58882813e+00  2.49989650e+00  1.46487088e+00 
 1.41777910e-04  2.54299495e+01  1.58902623e+00  2.49989680e+00  1.46787425e+00 
 1.42777910e-04  2.54249738e+01  1.58871532e+00  2.49989709e+00  1.47083292e+00 
 1.43777910e-04  2.54120283e+01  1.58790640e+00  2.49989738e+00  1.47374754e+00 
 1.44777910e-04  2.53915717e+01  1.58662814e+00  2.49989766e+00  1.47661877e+00 
 1.45777910e-04  2.53643285e+01  1.58492581e+00  2.49989794e+00  1.47944725e+00 
 1.46777910e-04  2.53312638e+01  1.58285972e+00  2.49989822e+00  1.48223362e+00 
 1.47777910e-04  2.52935491e+01  1.58050306e+00  2.49989849e+00  1.48497852e+00 
 1.48777910e-04  2.52525204e+01  1.57793933e+00  2.49989876e+00  1.48768254e+00 
 1.49777910e-04  2.52096312e+01  1.57525933e+00  2.49989902e+00  1.49034632e+00 
 1.50777910e-04  2.51664007e+01  1.57255801e+00  2.49989929e+00  1.49297043e+00 
 1.51777910e-04  2.51243605e+01  1.56993107e+00  2.49989955e+00  1.49555548e+00 
 1.52777910e-04  2.50849999e+01  1.56747157e+00  2.49989980e+00  1.49810205e+00 
 1.53777910e-04  2.50497132e+01  1.56526663e+00  2.49990005e+00  1.50061070e+00 
 1.54777910e-04  2.50197505e+01  1.56339437e+00  2.49990030e+00  1.50308201e+00 
 1.55777910e-04  2.49961732e+01  1.56192111e+00  2.49990055e+00  1.50551652e+00 
 1.56777910e-04  2.49798165e+01  1.56089904e+00  2.49990080e+00  1.50791480e+00 
 1.57777910e-04  2.49712600e+01  1.56036437e+00  2.49990104e+00  1.51027736e+00 
 1.58777910e-04  2.49708066e+01  1.56033604e+00  2.49990127e+00  1.51260476e+00 
 1.59777910e-04  2.49784726e+01  1.56081506e+00  2.49990151e+00  1.51489751e+00 
 1.60777910e-04  2.49939862e+01  1.56178445e+00  2.49990174e+00  1.51715612e+00 
 1.61777910e-04  2.50167980e+01  1.56320988e+00  2.49990196e+00  1.51938111e+00 
 1.62777910e-04  2.50460998e+01  1.56504084e+00  2.49990218e+00  1.52157297e+00 
 1.63777910e-04  2.50808535e+01  1.56721248e+00  2.49990240e+00  1.52373221e+00 
 1.64777910e-04  2.51198281e+01  1.56964786e+00  2.49990262e+00  1.52585930e+00 
 1.65777910e-04  2.51616428e+01  1.57226071e+00  2.49990283e+00  1.52795472e+00 
 1.66777910e-04  2.52048164e+01  1.57495847e+00  2.49990303e+00  1.53001895e+00 
 1.67777910e-04  2.52478193e+01  1.57764557e+00  2.49990324e+00  1.53205244e+00 
 1.68777910e-04  2.52891282e+01  1.58022681e+00  2.49990344e+00  1.53405566e+00 
 1.69777910e-04  2.53272796e+01  1.58261076e+00  2.49990363e+00  1.53602906e+00 
 1.70777910e-04  2.53609222e+01  1.58471296e+00  2.49990382e+00  1.53797309e+00 
 1.71777910e-04  2.53888640e+01  1.58645894e+00  2.49990401e+00  1.53988816e+00 
 1.72777910e-04  2.54101152e+01  1.58778686e+00  2.49990420e+00  1.54177473e+00 
 1.73777910e-04  2.54239230e+01  1.58864966e+00  2.49990438e+00  1.54363322e+00 
 1.74777910e-04  2.54297982e+01  1.58901678e+00  2.49990456e+00  1.54546403e+00 
 1.75777910e-04  2.54275327e+01  1.58887522e+00  2.49990473e+00  1.54726759e+00 
 1.76777910e-04  2.54172068e+01  1.58822999e+00  2.49990491e+00  1.54904430e+00 
 1.77777910e-04  2.53991862e+01  1.58710394e+00  2.49990508e+00  1.55079456e+00 
 1.78777910e-04  2.53741094e+01  1.58553698e+00  2.49990525e+00  1.55251876e+00 
 1.79777910e-04  2.53428647e+01  1.58358461e+00  2.49990541e+00  1.55421729e+00 
 1.80777910e-04  2.53065589e+01  1.58131599e+00  2.49990558e+00  1.55589054e+00 
 1.81777910e-04  2.52664782e+01  1.57881150e+00  2.49990574e+00  1.55753888e+00 
 1.82777910e-04  2.52240425e+01  1.57615984e+00  2.49990590e+00  1.55916267e+00 
 1.83777910e-04  2.51807551e+01  1.57345497e+00  2.49990606e+00  1.56076230e+00 
 1.84777910e-04  2.51381495e+01  1.57079269e+00  2.49990622e+00  1.56233810e+00 
 1.85777910e-04  2.50977349e+01  1.56826733e+00  2.49990638e+00  1.56389045e+00 
 1.86777910e-04  2.50609431e+01  1.56596835e+00  2.49990653e+00  1.56541969e+00 
 1.87777910e-04  2.50290775e+01  1.56397718e+00  2.49990669e+00  1.56692616e+00 
 1.88777910e-04  2.50032668e+01  1.56236436e+00  2.49990684e+00  1.56841021e+00 
 1.89777910e-04  2.49844256e+01  1.56118704e+00  2.49990699e+00  1.56987216e+00 
 1.90777910e-04  2.49732211e+01  1.56048691e+00  2.49990714e+00  1.57131235e+00 
 1.91777910e-04  2.49700504e+01  1.56028879e+00  2.49990728e+00  1.57273109e+00 
 1.92777910e-04  2.49750258e+01  1.56059968e+00  2.49990743e+00  1.57412872e+00 
 1.93777910e-04  2.49879709e+01  1.56140858e+00  2.49990757e+00  1.57550554e+00 
 1.94777910e-04  2.50084273e+01  1.56268682e+00  2.49990771e+00  1.57686186e+00 
 1.95777910e-04  2.50356703e+01  1.56438914e+00  2.49990784e+00  1.57819799e+00 
 1.96777910e-04  2.50687347e+01  1.56645521e+00  2.49990798e+00  1.57951422e+00 
 1.97777910e-04  2.51064492e+01  1.56881186e+00  2.49990811e+00  1.58081087e+00 
 1.98777910e-04  2.51474778e+01  1.57137559e+00  2.49990824e+00  1.58208820e+00 
 1.99777910e-04  2.51903670e+01  1.57405558e+00  2.49990837e+00  1.58334653e+00 
 2.00777910e-04  2.52335975e+01  1.57675690e+00  2.49990849e+00  1.58458612e+00 
 2.01777910e-04  2.52756378e+01  1.57938384e+00  2.49990861e+00  1.58580725e+00 
 2.02777910e-04  2.53149985e+01  1.58184336e+00  2.49990873e+00  1.58701021e+00 
 2.03777910e-04  2.53502854e+01  1.58404831e+00  2.49990885e+00  1.58819525e+00 
 2.04777910e-04  2.53802484e+01  1.58592059e+00  2.49990896e+00  1.58936266e+00 
 2.05777910e-04  2.54038260e+01  1.58739387e+00  2.49990907e+00  1.59051268e+00 
 2.06777910e-04  2.54201829e+01  1.58841595e+00  2.49990918e+00  1.59164559e+00 
 2.07777910e-04  2.54287398e+01  1.58895064e+00  2.49990929e+00  1.59276163e+00 
 2.08777910e-04  2.54291935e+01  1.58897899e+00  2.49990939e+00  1.59386105e+00 
 2.09777910e-04  2.54215279e+01  1.58850000e+00  2.49990950e+00  1.59494411e+00 
 2.10777910e-04  2.54060146e+01  1.58753062e+00  2.49990960e+00  1.59601104e+00 
 2.11777910e-04  2.53832031e+01  1.58610522e+00  2.49990970e+00  1.59706209e+00 
 2.12777910e-04  2.53539016e+01  1.58427427e+00  2.49990980e+00  1.59809749e+00 
 2.13777910e-04  2.53191480e+01  1.58210264e+00  2.49990990e+00  1.59911747e+00 
 2.14777910e-04  2.52801736e+01  1.57966727e+00  2.49991000e+00  1.60012227e+00 
 2.15777910e-04  2.52383590e+01  1.57705443e+00  2.49991010e+00  1.60111212e+00 
 2.16777910e-04  2.51951855e+01  1.57435667e+00  2.49991020e+00  1.60208722e+00 
 2.17777910e-04  2.51521825e+01  1.57166957e+00  2.49991029e+00  1.60304781e+00 
 2.18777910e-04  2.51108735e+01  1.56908832e+00  2.49991039e+00  1.60399410e+00 
 2.19777910e-04  2.50727219e+01  1.56670436e+00  2.49991048e+00  1.60492630e+00 
 2.20777910e-04  2.50390791e+01  1.56460214e+00  2.49991058e+00  1.60584463e+00 
 2.21777910e-04  2.50111371e+01  1.56285614e+00  2.49991067e+00  1.60674928e+00 
 2.22777910e-04  2.49898855e+01  1.56152821e+00  2.49991076e+00  1.60764046e+00 
 2.23777910e-04  2.49760774e+01  1.56066539e+00  2.49991086e+00  1.60851838e+00 
 2.24777910e-04  2.49702019e+01  1.56029825e+00  2.49991095e+00  1.60938323e+00 
 2.25777910e-04  2.49724670e+01  1.56043979e+00  2.49991104e+00  1.61023520e+00 
 2.26777910e-04  2.49827926e+01  1.56108500e+00  2.49991112e+00  1.61107449e+00 
 2.27777910e-04  2.50008128e+01  1.56221102e+00  2.49991121e+00  1.61190128e+00 
 2.28777910e-04  2.50258894e+01  1.56377797e+00  2.49991129e+00  1.61271576e+00 
 2.29777910e-04  2.50571339e+01  1.56573032e+00  2.49991138e+00  1.61351812e+00 
