 time            v(VBUS_S)       v(INA)          v(HALL_OUT_DIV)
 1.00000000e-09  2.40416218e+01  1.50260136e+00  1.66702500e+00 
 2.00000000e-09  2.40415584e+01  1.50259740e+00  1.66704999e+00 
 4.00000000e-09  2.40414315e+01  1.50258947e+00  1.66709998e+00 
 8.00000000e-09  2.40411778e+01  1.50257361e+00  1.66719996e+00 
 1.60000000e-08  2.40406704e+01  1.50254190e+00  1.66739993e+00 
 3.20000000e-08  2.40396558e+01  1.50247849e+00  1.66779989e+00 
 6.40000000e-08  2.40376274e+01  1.50235171e+00  1.66859987e+00 
 1.00000000e-07  2.40353467e+01  1.50220917e+00  1.66949996e+00 
 1.06400000e-07  2.40349414e+01  1.50218384e+00  1.66965999e+00 
 1.19200000e-07  2.40341309e+01  1.50213318e+00  1.66998005e+00 
 1.44800000e-07  2.40325104e+01  1.50203190e+00  1.67062020e+00 
 1.96000000e-07  2.40292713e+01  1.50182946e+00  1.67190058e+00 
 2.96000000e-07  2.40229528e+01  1.50143455e+00  1.67440119e+00 
 3.96000000e-07  2.40166444e+01  1.50104028e+00  1.67690083e+00 
 4.96000000e-07  2.40103463e+01  1.50064664e+00  1.67939821e+00 
 5.96000000e-07  2.40040583e+01  1.50025364e+00  1.68189190e+00 
 6.96000000e-07  2.39977804e+01  1.49986128e+00  1.68438048e+00 
 7.96000000e-07  2.39915127e+01  1.49946955e+00  1.68686266e+00 
 8.96000000e-07  2.39852551e+01  1.49907845e+00  1.68933740e+00 
 9.96000000e-07  2.39790076e+01  1.49868798e+00  1.69180404e+00 
 1.09600000e-06  2.39727702e+01  1.49829814e+00  1.69426236e+00 
 1.19600000e-06  2.39665429e+01  1.49790893e+00  1.69671257e+00 
 1.29600000e-06  2.39603256e+01  1.49752035e+00  1.69915533e+00 
 1.39600000e-06  2.39541184e+01  1.49713240e+00  1.70159165e+00 
 1.49600000e-06  2.39479212e+01  1.49674507e+00  1.70402284e+00 
 1.59600000e-06  2.39417339e+01  1.49635837e+00  1.70645032e+00 
 1.69600000e-06  2.39355567e+01  1.49597229e+00  1.70887554e+00 
 1.79600000e-06  2.39293894e+01  1.49558684e+00  1.71129980e+00 
 1.89600000e-06  2.39232321e+01  1.49520201e+00  1.71372414e+00 
 1.99600000e-06  2.39170848e+01  1.49481780e+00  1.71614924e+00 
 2.09600000e-06  2.39109473e+01  1.49443421e+00  1.71857533e+00 
 2.19600000e-06  2.39048198e+01  1.49405124e+00  1.72100221e+00 
 2.29600000e-06  2.38987021e+01  1.49366888e+00  1.72342922e+00 
 2.39600000e-06  2.38925944e+01  1.49328715e+00  1.72585538e+00 
 2.49600000e-06  2.38864964e+01  1.49290603e+00  1.72827938e+00 
 2.59600000e-06  2.38804084e+01  1.49252552e+00  1.73069980e+00 
 2.69600000e-06  2.38743301e+01  1.49214563e+00  1.73311523e+00 
 2.79600000e-06  2.38682617e+01  1.49176636e+00  1.73552435e+00 
 2.89600000e-06  2.38622031e+01  1.49138769e+00  1.73792616e+00 
 2.99600000e-06  2.38561542e+01  1.49100964e+00  1.74031997e+00 
 3.09600000e-06  2.38501151e+01  1.49063219e+00  1.74270557e+00 
 3.19600000e-06  2.38440858e+01  1.49025536e+00  1.74508317e+00 
 3.29600000e-06  2.38380662e+01  1.48987914e+00  1.74745343e+00 
 3.39600000e-06  2.38320563e+01  1.48950352e+00  1.74981736e+00 
 3.49600000e-06  2.38260561e+01  1.48912851e+00  1.75217626e+00 
 3.59600000e-06  2.38200656e+01  1.48875410e+00  1.75453157e+00 
 3.69600000e-06  2.38140847e+01  1.48838030e+00  1.75688472e+00 
 3.79600000e-06  2.38081136e+01  1.48800710e+00  1.75923702e+00 
 3.89600000e-06  2.38021520e+01  1.48763450e+00  1.76158951e+00 
 3.99600000e-06  2.37962001e+01  1.48726251e+00  1.76394286e+00 
 4.09600000e-06  2.37902578e+01  1.48689111e+00  1.76629731e+00 
 4.19600000e-06  2.37843251e+01  1.48652032e+00  1.76865266e+00 
 4.29600000e-06  2.37784019e+01  1.48615012e+00  1.77100826e+00 
 4.39600000e-06  2.37724884e+01  1.48578052e+00  1.77336310e+00 
 4.49600000e-06  2.37665843e+01  1.48541152e+00  1.77571589e+00 
 4.59600000e-06  2.37606898e+01  1.48504311e+00  1.77806521e+00 
 4.69600000e-06  2.37548048e+01  1.48467530e+00  1.78040964e+00 
 4.79600000e-06  2.37489293e+01  1.48430808e+00  1.78274788e+00 
 4.89600000e-06  2.37430633e+01  1.48394146e+00  1.78507890e+00 
 4.99600000e-06  2.37372068e+01  1.48357543e+00  1.78740204e+00 
 5.09600000e-06  2.37313597e+01  1.48320998e+00  1.78971707e+00 
 5.19600000e-06  2.37255221e+01  1.48284513e+00  1.79202420e+00 
 5.29600000e-06  2.37196939e+01  1.48248087e+00  1.79432410e+00 
 5.39600000e-06  2.37138751e+01  1.48211719e+00  1.79661778e+00 
 5.49600000e-06  2.37080656e+01  1.48175410e+00  1.79890653e+00 
 5.59600000e-06  2.37022656e+01  1.48139160e+00  1.80119180e+00 
 5.69600000e-06  2.36964749e+01  1.48102968e+00  1.80347501e+00 
 5.79600000e-06  2.36906936e+01  1.48066835e+00  1.80575748e+00 
 5.89600000e-06  2.36849216e+01  1.48030760e+00  1.80804024e+00 
 5.99600000e-06  2.36791589e+01  1.47994743e+00  1.81032397e+00 
 6.09600000e-06  2.36734055e+01  1.47958785e+00  1.81260890e+00 
 6.19600000e-06  2.36676614e+01  1.47922884e+00  1.81489483e+00 
 6.29600000e-06  2.36619266e+01  1.47887041e+00  1.81718112e+00 
 6.39600000e-06  2.36562011e+01  1.47851257e+00  1.81946675e+00 
 6.49600000e-06  2.36504847e+01  1.47815530e+00  1.82175044e+00 
 6.59600000e-06  2.36447776e+01  1.47779860e+00  1.82403076e+00 
 6.69600000e-06  2.36390798e+01  1.47744249e+00  1.82630629e+00 
 6.79600000e-06  2.36333911e+01  1.47708694e+00  1.82857574e+00 
 6.89600000e-06  2.36277116e+01  1.47673197e+00  1.83083807e+00 
 6.99600000e-06  2.36220413e+01  1.47637758e+00  1.83309263e+00 
 7.09600000e-06  2.36163801e+01  1.47602375e+00  1.83533917e+00 
 7.19600000e-06  2.36107280e+01  1.47567050e+00  1.83757792e+00 
 7.29600000e-06  2.36050851e+01  1.47531782e+00  1.83980954e+00 
 7.39600000e-06  2.35994513e+01  1.47496571e+00  1.84203504e+00 
 7.49600000e-06  2.35938266e+01  1.47461416e+00  1.84425572e+00 
 7.59600000e-06  2.35882110e+01  1.47426319e+00  1.84647301e+00 
 7.69600000e-06  2.35826044e+01  1.47391278e+00  1.84868836e+00 
 7.79600000e-06  2.35770069e+01  1.47356293e+00  1.85090305e+00 
 7.89600000e-06  2.35714184e+01  1.47321365e+00  1.85311815e+00 
 7.99600000e-06  2.35658389e+01  1.47286493e+00  1.85533431e+00 
 8.09600000e-06  2.35602685e+01  1.47251678e+00  1.85755177e+00 
 8.19600000e-06  2.35547070e+01  1.47216919e+00  1.85977034e+00 
 8.29600000e-06  2.35491545e+01  1.47182216e+00  1.86198937e+00 
 8.39600000e-06  2.35436110e+01  1.47147569e+00  1.86420783e+00 
 8.49600000e-06  2.35380764e+01  1.47112978e+00  1.86642446e+00 
 8.59600000e-06  2.35325508e+01  1.47078443e+00  1.86863783e+00 
 8.69600000e-06  2.35270341e+01  1.47043963e+00  1.87084650e+00 
 8.79600000e-06  2.35215263e+01  1.47009539e+00  1.87304918e+00 
 8.89600000e-06  2.35160274e+01  1.46975171e+00  1.87524485e+00 
 8.99600000e-06  2.35105373e+01  1.46940858e+00  1.87743285e+00 
 9.09600000e-06  2.35050561e+01  1.46906601e+00  1.87961293e+00 
 9.19600000e-06  2.34995838e+01  1.46872399e+00  1.88178532e+00 
 9.29600000e-06  2.34941203e+01  1.46838252e+00  1.88395068e+00 
 9.39600000e-06  2.34886656e+01  1.46804160e+00  1.88611002e+00 
 9.49600000e-06  2.34832197e+01  1.46770123e+00  1.88826463e+00 
 9.59600000e-06  2.34777826e+01  1.46736141e+00  1.89041596e+00 
 9.69600000e-06  2.34723543e+01  1.46702215e+00  1.89256544e+00 
 9.79600000e-06  2.34669348e+01  1.46668342e+00  1.89471437e+00 
 9.89600000e-06  2.34615240e+01  1.46634525e+00  1.89686380e+00 
 9.99600000e-06  2.34561219e+01  1.46600762e+00  1.89901439e+00 
 1.00960000e-05  2.34507286e+01  1.46567054e+00  1.90116639e+00 
 1.01960000e-05  2.34453439e+01  1.46533400e+00  1.90331958e+00 
 1.02960000e-05  2.34399680e+01  1.46499800e+00  1.90547333e+00 
 1.03960000e-05  2.34346007e+01  1.46466254e+00  1.90762662e+00 
 1.04960000e-05  2.34292421e+01  1.46432763e+00  1.90977817e+00 
 1.05960000e-05  2.34238922e+01  1.46399326e+00  1.91192655e+00 
 1.06960000e-05  2.34185508e+01  1.46365943e+00  1.91407034e+00 
 1.07960000e-05  2.34132181e+01  1.46332613e+00  1.91620823e+00 
 1.08960000e-05  2.34078940e+01  1.46299338e+00  1.91833922e+00 
 1.09960000e-05  2.34025786e+01  1.46266116e+00  1.92046262e+00 
 1.10960000e-05  2.33972716e+01  1.46232948e+00  1.92257820e+00 
 1.11960000e-05  2.33919733e+01  1.46199833e+00  1.92468619e+00 
 1.12960000e-05  2.33866835e+01  1.46166772e+00  1.92678725e+00 
 1.13960000e-05  2.33814022e+01  1.46133764e+00  1.92888238e+00 
 1.14960000e-05  2.33761295e+01  1.46100809e+00  1.93097289e+00 
 1.15960000e-05  2.33708653e+01  1.46067908e+00  1.93306020e+00 
 1.16960000e-05  2.33656096e+01  1.46035060e+00  1.93514576e+00 
 1.17960000e-05  2.33603623e+01  1.46002265e+00  1.93723087e+00 
 1.18960000e-05  2.33551236e+01  1.45969522e+00  1.93931657e+00 
 1.19960000e-05  2.33498933e+01  1.45936833e+00  1.94140353e+00 
 1.20960000e-05  2.33446714e+01  1.45904196e+00  1.94349199e+00 
 1.21960000e-05  2.33394579e+01  1.45871612e+00  1.94558174e+00 
 1.22960000e-05  2.33342529e+01  1.45839081e+00  1.94767215e+00 
 1.23960000e-05  2.33290563e+01  1.45806602e+00  1.94976218e+00 
 1.24960000e-05  2.33238681e+01  1.45774175e+00  1.95185058e+00 
 1.25960000e-05  2.33186882e+01  1.45741801e+00  1.95393590e+00 
 1.26960000e-05  2.33135167e+01  1.45709480e+00  1.95601672e+00 
 1.27960000e-05  2.33083536e+01  1.45677210e+00  1.95809174e+00 
 1.28960000e-05  2.33031988e+01  1.45644992e+00  1.96015995e+00 
 1.29960000e-05  2.32980523e+01  1.45612827e+00  1.96222066e+00 
 1.30960000e-05  2.32929141e+01  1.45580713e+00  1.96427366e+00 
 1.31960000e-05  2.32877842e+01  1.45548651e+00  1.96631916e+00 
 1.32960000e-05  2.32826626e+01  1.45516641e+00  1.96835780e+00 
 1.33960000e-05  2.32775492e+01  1.45484683e+00  1.97039063e+00 
 1.34960000e-05  2.32724442e+01  1.45452776e+00  1.97241892e+00 
 1.35960000e-05  2.32673473e+01  1.45420921e+00  1.97444411e+00 
 1.36960000e-05  2.32622587e+01  1.45389117e+00  1.97646764e+00 
 1.37960000e-05  2.32571783e+01  1.45357364e+00  1.97849082e+00 
 1.38960000e-05  2.32521061e+01  1.45325663e+00  1.98051467e+00 
 1.39960000e-05  2.32470421e+01  1.45294013e+00  1.98253988e+00 
 1.40960000e-05  2.32419862e+01  1.45262414e+00  1.98456668e+00 
 1.41960000e-05  2.32369385e+01  1.45230866e+00  1.98659487e+00 
 1.42960000e-05  2.32318990e+01  1.45199369e+00  1.98862380e+00 
 1.43960000e-05  2.32268676e+01  1.45167923e+00  1.99065246e+00 
 1.44960000e-05  2.32218443e+01  1.45136527e+00  1.99267956e+00 
 1.45960000e-05  2.32168292e+01  1.45105182e+00  1.99470368e+00 
 1.46960000e-05  2.32118221e+01  1.45073888e+00  1.99672340e+00 
 1.47960000e-05  2.32068231e+01  1.45042644e+00  1.99873741e+00 
 1.48960000e-05  2.32018322e+01  1.45011451e+00  2.00074469e+00 
 1.49960000e-05  2.31968493e+01  1.44980308e+00  2.00274457e+00 
 1.50960000e-05  2.31918745e+01  1.44949216e+00  2.00473683e+00 
 1.51960000e-05  2.31869077e+01  1.44918173e+00  2.00672168e+00 
 1.52960000e-05  2.31819489e+01  1.44887181e+00  2.00869977e+00 
 1.53960000e-05  2.31769982e+01  1.44856239e+00  2.01067212e+00 
 1.54960000e-05  2.31720554e+01  1.44825346e+00  2.01264004e+00 
 1.55960000e-05  2.31671206e+01  1.44794504e+00  2.01460494e+00 
 1.56960000e-05  2.31621938e+01  1.44763711e+00  2.01656828e+00 
 1.57960000e-05  2.31572749e+01  1.44732968e+00  2.01853135e+00 
 1.58960000e-05  2.31523640e+01  1.44702275e+00  2.02049518e+00 
 1.59960000e-05  2.31474610e+01  1.44671631e+00  2.02246047e+00 
 1.60960000e-05  2.31425659e+01  1.44641037e+00  2.02442743e+00 
 1.61960000e-05  2.31376787e+01  1.44610492e+00  2.02639587e+00 
 1.62960000e-05  2.31327994e+01  1.44579996e+00  2.02836515e+00 
 1.63960000e-05  2.31279279e+01  1.44549550e+00  2.03033424e+00 
 1.64960000e-05  2.31230644e+01  1.44519152e+00  2.03230186e+00 
 1.65960000e-05  2.31182087e+01  1.44488804e+00  2.03426660e+00 
 1.66960000e-05  2.31133608e+01  1.44458505e+00  2.03622701e+00 
 1.67960000e-05  2.31085207e+01  1.44428255e+00  2.03818181e+00 
 1.68960000e-05  2.31036885e+01  1.44398053e+00  2.04012997e+00 
 1.69960000e-05  2.30988641e+01  1.44367900e+00  2.04207082e+00 
 1.70960000e-05  2.30940474e+01  1.44337796e+00  2.04400413e+00 
 1.71960000e-05  2.30892385e+01  1.44307741e+00  2.04593012e+00 
 1.72960000e-05  2.30844374e+01  1.44277734e+00  2.04784944e+00 
 1.73960000e-05  2.30796441e+01  1.44247775e+00  2.04976312e+00 
 1.74960000e-05  2.30748584e+01  1.44217865e+00  2.05167244e+00 
 1.75960000e-05  2.30700805e+01  1.44188003e+00  2.05357884e+00 
 1.76960000e-05  2.30653104e+01  1.44158190e+00  2.05548376e+00 
 1.77960000e-05  2.30605479e+01  1.44128424e+00  2.05738850e+00 
 1.78960000e-05  2.30557931e+01  1.44098707e+00  2.05929410e+00 
 1.79960000e-05  2.30510460e+01  1.44069037e+00  2.06120122e+00 
 1.80960000e-05  2.30463065e+01  1.44039416e+00  2.06311012e+00 
 1.81960000e-05  2.30415747e+01  1.44009842e+00  2.06502058e+00 
 1.82960000e-05  2.30368505e+01  1.43980316e+00  2.06693196e+00 
 1.83960000e-05  2.30321340e+01  1.43950837e+00  2.06884324e+00 
 1.84960000e-05  2.30274250e+01  1.43921406e+00  2.07075315e+00 
 1.85960000e-05  2.30227237e+01  1.43892023e+00  2.07266025e+00 
 1.86960000e-05  2.30180300e+01  1.43862687e+00  2.07456312e+00 
 1.87960000e-05  2.30133438e+01  1.43833399e+00  2.07646046e+00 
 1.88960000e-05  2.30086652e+01  1.43804158e+00  2.07835124e+00 
 1.89960000e-05  2.30039942e+01  1.43774963e+00  2.08023480e+00 
 1.90960000e-05  2.29993307e+01  1.43745817e+00  2.08211091e+00 
 1.91960000e-05  2.29946747e+01  1.43716717e+00  2.08397978e+00 
 1.92960000e-05  2.29900262e+01  1.43687664e+00  2.08584207e+00 
 1.93960000e-05  2.29853853e+01  1.43658658e+00  2.08769880e+00 
 1.94960000e-05  2.29807518e+01  1.43629699e+00  2.08955126e+00 
 1.95960000e-05  2.29761258e+01  1.43600786e+00  2.09140089e+00 
 1.96960000e-05  2.29715073e+01  1.43571920e+00  2.09324912e+00 
 1.97960000e-05  2.29668962e+01  1.43543101e+00  2.09509725e+00 
 1.98960000e-05  2.29622926e+01  1.43514329e+00  2.09694632e+00 
 1.99960000e-05  2.29576964e+01  1.43485602e+00  2.09879702e+00 
 2.00960000e-05  2.29531076e+01  1.43456923e+00  2.10064956e+00 
 2.01960000e-05  2.29485263e+01  1.43428289e+00  2.10250376e+00 
 2.02960000e-05  2.29439523e+01  1.43399702e+00  2.10435895e+00 
 2.03960000e-05  2.29393857e+01  1.43371161e+00  2.10621414e+00 
 2.04960000e-05  2.29348265e+01  1.43342666e+00  2.10806803e+00 
 2.05960000e-05  2.29302746e+01  1.43314217e+00  2.10991920e+00 
 2.06960000e-05  2.29257301e+01  1.43285813e+00  2.11176622e+00 
 2.07960000e-05  2.29211930e+01  1.43257456e+00  2.11360780e+00 
 2.08960000e-05  2.29166631e+01  1.43229144e+00  2.11544290e+00 
 2.09960000e-05  2.29121406e+01  1.43200879e+00  2.11727087e+00 
 2.10960000e-05  2.29076254e+01  1.43172658e+00  2.11909146e+00 
 2.11960000e-05  2.29031174e+01  1.43144484e+00  2.12090491e+00 
 2.12960000e-05  2.28986167e+01  1.43116355e+00  2.12271185e+00 
 2.13960000e-05  2.28941233e+01  1.43088271e+00  2.12451332e+00 
 2.14960000e-05  2.28896372e+01  1.43060232e+00  2.12631060e+00 
 2.15960000e-05  2.28851583e+01  1.43032239e+00  2.12810512e+00 
 2.16960000e-05  2.28806866e+01  1.43004291e+00  2.12989834e+00 
 2.17960000e-05  2.28762221e+01  1.42976388e+00  2.13169154e+00 
 2.18960000e-05  2.28717649e+01  1.42948531e+00  2.13348576e+00 
 2.19960000e-05  2.28673148e+01  1.42920718e+00  2.13528168e+00 
 2.20960000e-05  2.28628720e+01  1.42892950e+00  2.13707955e+00 
 2.21960000e-05  2.28584363e+01  1.42865227e+00  2.13887914e+00 
 2.22960000e-05  2.28540077e+01  1.42837548e+00  2.14067981e+00 
 2.23960000e-05  2.28495863e+01  1.42809914e+00  2.14248055e+00 
 2.24960000e-05  2.28451721e+01  1.42782325e+00  2.14428009e+00 
 2.25960000e-05  2.28407649e+01  1.42754781e+00  2.14607698e+00 
 2.26960000e-05  2.28363649e+01  1.42727281e+00  2.14786980e+00 
 2.27960000e-05  2.28319720e+01  1.42699825e+00  2.14965727e+00 
 2.28960000e-05  2.28275862e+01  1.42672414e+00  2.15143834e+00 
 2.29960000e-05  2.28232074e+01  1.42645046e+00  2.15321235e+00 
 2.30960000e-05  2.28188358e+01  1.42617723e+00  2.15497907e+00 
 2.31960000e-05  2.28144711e+01  1.42590445e+00  2.15673873e+00 
 2.32960000e-05  2.28101136e+01  1.42563210e+00  2.15849196e+00 
 2.33960000e-05  2.28057630e+01  1.42536019e+00  2.16023980e+00 
 2.34960000e-05  2.28014195e+01  1.42508872e+00  2.16198353e+00 
 2.35960000e-05  2.27970830e+01  1.42481769e+00  2.16372459e+00 
 2.36960000e-05  2.27927535e+01  1.42454709e+00  2.16546441e+00 
 2.37960000e-05  2.27884310e+01  1.42427694e+00  2.16720430e+00 
 2.38960000e-05  2.27841154e+01  1.42400722e+00  2.16894530e+00 
 2.39960000e-05  2.27798069e+01  1.42373793e+00  2.17068807e+00 
 2.40960000e-05  2.27755053e+01  1.42346908e+00  2.17243286e+00 
 2.41960000e-05  2.27712106e+01  1.42320066e+00  2.17417946e+00 
 2.42960000e-05  2.27669228e+01  1.42293268e+00  2.17592722e+00 
 2.43960000e-05  2.27626420e+01  1.42266513e+00  2.17767514e+00 
 2.44960000e-05  2.27583681e+01  1.42239801e+00  2.17942192e+00 
 2.45960000e-05  2.27541011e+01  1.42213132e+00  2.18116614e+00 
 2.46960000e-05  2.27498410e+01  1.42186506e+00  2.18290637e+00 
 2.47960000e-05  2.27455877e+01  1.42159923e+00  2.18464131e+00 
 2.48960000e-05  2.27413414e+01  1.42133384e+00  2.18636995e+00 
 2.49960000e-05  2.27371018e+01  1.42106887e+00  2.18809160e+00 
 2.50960000e-05  2.27328692e+01  1.42080432e+00  2.18980605e+00 
 2.51960000e-05  2.27286433e+01  1.42054021e+00  2.19151350e+00 
 2.52960000e-05  2.27244243e+01  1.42027652e+00  2.19321461e+00 
 2.53960000e-05  2.27202121e+01  1.42001325e+00  2.19491040e+00 
 2.54960000e-05  2.27160067e+01  1.41975042e+00  2.19660216e+00 
 2.55960000e-05  2.27118080e+01  1.41948800e+00  2.19829133e+00 
 2.56960000e-05  2.27076162e+01  1.41922601e+00  2.19997935e+00 
 2.57960000e-05  2.27034311e+01  1.41896444e+00  2.20166750e+00 
 2.58960000e-05  2.26992528e+01  1.41870330e+00  2.20335684e+00 
 2.59960000e-05  2.26950812e+01  1.41844257e+00  2.20504804e+00 
 2.60960000e-05  2.26909163e+01  1.41818227e+00  2.20674133e+00 
 2.61960000e-05  2.26867582e+01  1.41792239e+00  2.20843650e+00 
 2.62960000e-05  2.26826068e+01  1.41766292e+00  2.21013292e+00 
 2.63960000e-05  2.26784621e+01  1.41740388e+00  2.21182956e+00 
 2.64960000e-05  2.26743241e+01  1.41714525e+00  2.21352515e+00 
 2.65960000e-05  2.26701927e+01  1.41688704e+00  2.21521825e+00 
 2.66960000e-05  2.26660680e+01  1.41662925e+00  2.21690744e+00 
 2.67960000e-05  2.26619500e+01  1.41637188e+00  2.21859142e+00 
 2.68960000e-05  2.26578387e+01  1.41611492e+00  2.22026917e+00 
 2.69960000e-05  2.26537339e+01  1.41585837e+00  2.22194002e+00 
 2.70960000e-05  2.26496358e+01  1.41560224e+00  2.22360373e+00 
 2.71960000e-05  2.26455443e+01  1.41534652e+00  2.22526052e+00 
 2.72960000e-05  2.26414594e+01  1.41509121e+00  2.22691105e+00 
 2.73960000e-05  2.26373811e+01  1.41483632e+00  2.22855633e+00 
 2.74960000e-05  2.26333094e+01  1.41458184e+00  2.23019766e+00 
 2.75960000e-05  2.26292443e+01  1.41432777e+00  2.23183648e+00 
 2.76960000e-05  2.26251857e+01  1.41407411e+00  2.23347421e+00 
 2.77960000e-05  2.26211337e+01  1.41382086e+00  2.23511216e+00 
 2.78960000e-05  2.26170882e+01  1.41356801e+00  2.23675137e+00 
 2.79960000e-05  2.26130493e+01  1.41331558e+00  2.23839251e+00 
 2.80960000e-05  2.26090168e+01  1.41306355e+00  2.24003582e+00 
 2.81960000e-05  2.26049909e+01  1.41281193e+00  2.24168110e+00 
 2.82960000e-05  2.26009715e+01  1.41256072e+00  2.24332768e+00 
 2.83960000e-05  2.25969586e+01  1.41230991e+00  2.24497457e+00 
 2.84960000e-05  2.25929521e+01  1.41205951e+00  2.24662048e+00 
 2.85960000e-05  2.25889521e+01  1.41180951e+00  2.24826397e+00 
 2.86960000e-05  2.25849586e+01  1.41155991e+00  2.24990363e+00 
 2.87960000e-05  2.25809715e+01  1.41131072e+00  2.25153816e+00 
 2.88960000e-05  2.25769908e+01  1.41106193e+00  2.25316652e+00 
 2.89960000e-05  2.25730166e+01  1.41081354e+00  2.25478806e+00 
 2.90960000e-05  2.25690488e+01  1.41056555e+00  2.25640253e+00 
 2.91960000e-05  2.25650874e+01  1.41031796e+00  2.25801016e+00 
 2.92960000e-05  2.25611324e+01  1.41007078e+00  2.25961161e+00 
 2.93960000e-05  2.25571838e+01  1.40982399e+00  2.26120788e+00 
 2.94960000e-05  2.25532415e+01  1.40957760e+00  2.26280027e+00 
 2.95960000e-05  2.25493056e+01  1.40933160e+00  2.26439021e+00 
