 time            v(DSHOT_RX)     v(VBUS_RIP)    
 1.00000000e-09  3.25725517e+00 -2.30000000e-01 
 1.46033213e-09  3.24576379e+00 -2.30000000e-01 
 2.38099639e-09  3.22286293e+00 -2.30000000e-01 
 4.22232492e-09  3.17754913e+00 -2.30000000e-01 
 7.90498197e-09  3.08883886e+00 -2.30000000e-01 
 1.52702961e-08  2.91882088e+00 -2.30000000e-01 
 3.00009243e-08  2.60639191e+00 -2.30000000e-01 
 5.94621807e-08  2.07778668e+00 -2.30000000e-01 
 1.00000000e-07  1.52131301e+00 -2.30000000e-01 
 1.05892251e-07  1.45614878e+00 -2.30000000e-01 
 1.17676754e-07  1.33152536e+00 -2.30000000e-01 
 1.41245759e-07  1.11363764e+00 -2.30000000e-01 
 1.88383769e-07  7.79031116e-01 -2.30000000e-01 
 2.82659790e-07  3.78898644e-01 -2.30000000e-01 
 3.82659790e-07  1.85165885e-01 -2.30000000e-01 
 4.68363914e-07  1.08989210e-01 -2.30000000e-01 
 5.58685485e-07  6.93456203e-02 -2.30000000e-01 
 6.53839260e-07  4.95514313e-02 -2.30000000e-01 
 7.53839260e-07  4.01071401e-02 -2.30000000e-01 
 8.53839260e-07  3.59474661e-02 -2.30000000e-01 
 9.53839260e-07  3.41153660e-02 -2.30000000e-01 
 1.00000000e-06  3.36768198e-02 -2.30000000e-01 
 1.00485586e-06  3.52960978e-02 -2.07663041e-01 
 1.01456758e-06  3.84169167e-02 -1.62989122e-01 
 1.03399103e-06  4.40016947e-02 -7.36412838e-02 
 1.07283791e-06  5.29744438e-02  1.05054392e-01 
 1.10000000e-06  5.77930818e-02  2.30000000e-01 
 1.10257860e-06  5.72997221e-02  2.30000000e-01 
 1.10773580e-06  5.63323819e-02  2.30000000e-01 
 1.11805019e-06  5.45094988e-02  2.30000000e-01 
 1.13867899e-06  5.12694503e-02  2.30000000e-01 
 1.17993657e-06  4.61320118e-02  2.30000000e-01 
 1.26245174e-06  3.95982257e-02  2.30000000e-01 
 1.36245174e-06  3.57233183e-02  2.30000000e-01 
 1.46245174e-06  3.40166416e-02  2.30000000e-01 
 1.56245174e-06  3.32649474e-02  2.30000000e-01 
 1.66245174e-06  3.29338688e-02  2.30000000e-01 
 1.76245174e-06  3.27880475e-02  2.30000000e-01 
 1.86245174e-06  3.27238215e-02  2.30000000e-01 
 1.96245174e-06  3.26955336e-02  2.30000000e-01 
 2.06245174e-06  3.26830743e-02  2.30000000e-01 
 2.16245174e-06  3.26775868e-02  2.30000000e-01 
 2.26245174e-06  3.26751698e-02  2.30000000e-01 
 2.36245174e-06  3.26741053e-02  2.30000000e-01 
 2.46245174e-06  3.26736364e-02  2.30000000e-01 
 2.56245174e-06  3.26734299e-02  2.30000000e-01 
 2.66245174e-06  3.26733389e-02  2.30000000e-01 
 2.76245174e-06  3.26732989e-02  2.30000000e-01 
 2.86245174e-06  3.26732812e-02  2.30000000e-01 
 2.96245174e-06  3.26732734e-02  2.30000000e-01 
 3.06245174e-06  3.26732700e-02  2.30000000e-01 
 3.16245174e-06  3.26732685e-02  2.30000000e-01 
 3.26245174e-06  3.26732678e-02  2.30000000e-01 
 3.36245174e-06  3.26732676e-02  2.30000000e-01 
 3.46245174e-06  3.26732674e-02  2.30000000e-01 
 3.56245174e-06  3.26732674e-02  2.30000000e-01 
 3.66245174e-06  3.26732673e-02  2.30000000e-01 
 3.76245174e-06  3.26732673e-02  2.30000000e-01 
 3.86245174e-06  3.26732673e-02  2.30000000e-01 
 3.96245174e-06  3.26732673e-02  2.30000000e-01 
 4.06245174e-06  3.26732673e-02  2.30000000e-01 
 4.16245174e-06  3.26732673e-02  2.30000000e-01 
 4.26245174e-06  3.26732673e-02  2.30000000e-01 
 4.36245174e-06  3.26732673e-02  2.30000000e-01 
 4.46245174e-06  3.26732673e-02  2.30000000e-01 
 4.56245174e-06  3.26732673e-02  2.30000000e-01 
 4.66245174e-06  3.26732673e-02  2.30000000e-01 
 4.76245174e-06  3.26732673e-02  2.30000000e-01 
 4.86245174e-06  3.26732673e-02  2.30000000e-01 
 4.96245174e-06  3.26732673e-02  2.30000000e-01 
 5.06245174e-06  3.26732673e-02  2.30000000e-01 
 5.16245174e-06  3.26732673e-02  2.30000000e-01 
 5.26245174e-06  3.26732673e-02  2.30000000e-01 
 5.36245174e-06  3.26732673e-02  2.30000000e-01 
 5.46245174e-06  3.26732673e-02  2.30000000e-01 
 5.56245174e-06  3.26732673e-02  2.30000000e-01 
 5.66245174e-06  3.26732673e-02  2.30000000e-01 
 5.76245174e-06  3.26732673e-02  2.30000000e-01 
 5.86245174e-06  3.26732673e-02  2.30000000e-01 
 5.96245174e-06  3.26732673e-02  2.30000000e-01 
 6.06245174e-06  3.26732673e-02  2.30000000e-01 
 6.16245174e-06  3.26732673e-02  2.30000000e-01 
 6.26245174e-06  3.26732673e-02  2.30000000e-01 
 6.36245174e-06  3.26732673e-02  2.30000000e-01 
 6.46245174e-06  3.26732673e-02  2.30000000e-01 
 6.56245174e-06  3.26732673e-02  2.30000000e-01 
 6.66245174e-06  3.26732673e-02  2.30000000e-01 
 6.76245174e-06  3.26732673e-02  2.30000000e-01 
 6.86245174e-06  3.26732673e-02  2.30000000e-01 
 6.96245174e-06  3.26732673e-02  2.30000000e-01 
 7.06245174e-06  3.26732673e-02  2.30000000e-01 
 7.16245174e-06  3.26732673e-02  2.30000000e-01 
 7.26245174e-06  3.26732673e-02  2.30000000e-01 
 7.36245174e-06  3.26732673e-02  2.30000000e-01 
 7.46245174e-06  3.26732673e-02  2.30000000e-01 
 7.56245174e-06  3.26732673e-02  2.30000000e-01 
 7.66245174e-06  3.26732673e-02  2.30000000e-01 
 7.76245174e-06  3.26732673e-02  2.30000000e-01 
 7.86245174e-06  3.26732673e-02  2.30000000e-01 
 7.96245174e-06  3.26732673e-02  2.30000000e-01 
 8.06245174e-06  3.26732673e-02  2.30000000e-01 
 8.16245174e-06  3.26732673e-02  2.30000000e-01 
 8.26245174e-06  3.26732673e-02  2.30000000e-01 
 8.36245174e-06  3.26732673e-02  2.30000000e-01 
 8.46245174e-06  3.26732673e-02  2.30000000e-01 
 8.56245174e-06  3.26732673e-02  2.30000000e-01 
 8.66245174e-06  3.26732673e-02  2.30000000e-01 
 8.76245174e-06  3.26732673e-02  2.30000000e-01 
 8.86245174e-06  3.26732673e-02  2.30000000e-01 
 8.96245174e-06  3.26732673e-02  2.30000000e-01 
 9.06245174e-06  3.26732673e-02  2.30000000e-01 
 9.16245174e-06  3.26732673e-02  2.30000000e-01 
 9.26245174e-06  3.26732673e-02  2.30000000e-01 
 9.36245174e-06  3.26732673e-02  2.30000000e-01 
 9.46245174e-06  3.26732673e-02  2.30000000e-01 
 9.56245174e-06  3.26732673e-02  2.30000000e-01 
 9.66245174e-06  3.26732673e-02  2.30000000e-01 
 9.76245174e-06  3.26732673e-02  2.30000000e-01 
 9.86245174e-06  3.26732673e-02  2.30000000e-01 
 9.96245174e-06  3.26732673e-02  2.30000000e-01 
 1.00624517e-05  3.26732673e-02  2.30000000e-01 
 1.01624517e-05  3.26732673e-02  2.30000000e-01 
 1.02624517e-05  3.26732673e-02  2.30000000e-01 
 1.03624517e-05  3.26732673e-02  2.30000000e-01 
 1.04624517e-05  3.26732673e-02  2.30000000e-01 
 1.05624517e-05  3.26732673e-02  2.30000000e-01 
 1.06624517e-05  3.26732673e-02  2.30000000e-01 
 1.07624517e-05  3.26732673e-02  2.30000000e-01 
 1.08624517e-05  3.26732673e-02  2.30000000e-01 
 1.09624517e-05  3.26732673e-02  2.30000000e-01 
 1.10624517e-05  3.26732673e-02  2.30000000e-01 
 1.11624517e-05  3.26732673e-02  2.30000000e-01 
 1.12624517e-05  3.26732673e-02  2.30000000e-01 
 1.13624517e-05  3.26732673e-02  2.30000000e-01 
 1.14624517e-05  3.26732673e-02  2.30000000e-01 
 1.15624517e-05  3.26732673e-02  2.30000000e-01 
 1.16624517e-05  3.26732673e-02  2.30000000e-01 
 1.17624517e-05  3.26732673e-02  2.30000000e-01 
 1.18624517e-05  3.26732673e-02  2.30000000e-01 
 1.19624517e-05  3.26732673e-02  2.30000000e-01 
 1.20624517e-05  3.26732673e-02  2.30000000e-01 
 1.21624517e-05  3.26732673e-02  2.30000000e-01 
 1.22624517e-05  3.26732673e-02  2.30000000e-01 
 1.23624517e-05  3.26732673e-02  2.30000000e-01 
 1.24624517e-05  3.26732673e-02  2.30000000e-01 
 1.25624517e-05  3.26732673e-02  2.30000000e-01 
 1.26624517e-05  3.26732673e-02  2.30000000e-01 
 1.27624517e-05  3.26732673e-02  2.30000000e-01 
 1.28624517e-05  3.26732673e-02  2.30000000e-01 
 1.29624517e-05  3.26732673e-02  2.30000000e-01 
 1.30624517e-05  3.26732673e-02  2.30000000e-01 
 1.31624517e-05  3.26732673e-02  2.30000000e-01 
 1.32624517e-05  3.26732673e-02  2.30000000e-01 
 1.33624517e-05  3.26732673e-02  2.30000000e-01 
 1.34624517e-05  3.26732673e-02  2.30000000e-01 
 1.35624517e-05  3.26732673e-02  2.30000000e-01 
 1.36624517e-05  3.26732673e-02  2.30000000e-01 
 1.37624517e-05  3.26732673e-02  2.30000000e-01 
 1.38624517e-05  3.26732673e-02  2.30000000e-01 
 1.39624517e-05  3.26732673e-02  2.30000000e-01 
 1.40624517e-05  3.26732673e-02  2.30000000e-01 
 1.41624517e-05  3.26732673e-02  2.30000000e-01 
 1.42624517e-05  3.26732673e-02  2.30000000e-01 
 1.43624517e-05  3.26732673e-02  2.30000000e-01 
 1.44624517e-05  3.26732673e-02  2.30000000e-01 
 1.45624517e-05  3.26732673e-02  2.30000000e-01 
 1.46624517e-05  3.26732673e-02  2.30000000e-01 
 1.47624517e-05  3.26732673e-02  2.30000000e-01 
 1.48624517e-05  3.26732673e-02  2.30000000e-01 
 1.49624517e-05  3.26732673e-02  2.30000000e-01 
 1.50624517e-05  3.26732673e-02  2.30000000e-01 
 1.51624517e-05  3.26732673e-02  2.30000000e-01 
 1.52624517e-05  3.26732673e-02  2.30000000e-01 
 1.53624517e-05  3.26732673e-02  2.30000000e-01 
 1.54624517e-05  3.26732673e-02  2.30000000e-01 
 1.55624517e-05  3.26732673e-02  2.30000000e-01 
 1.56624517e-05  3.26732673e-02  2.30000000e-01 
 1.57624517e-05  3.26732673e-02  2.30000000e-01 
 1.58624517e-05  3.26732673e-02  2.30000000e-01 
 1.59624517e-05  3.26732673e-02  2.30000000e-01 
 1.60624517e-05  3.26732673e-02  2.30000000e-01 
 1.61624517e-05  3.26732673e-02  2.30000000e-01 
 1.62624517e-05  3.26732673e-02  2.30000000e-01 
 1.63624517e-05  3.26732673e-02  2.30000000e-01 
 1.64624517e-05  3.26732673e-02  2.30000000e-01 
 1.65624517e-05  3.26732673e-02  2.30000000e-01 
 1.66624517e-05  3.26732673e-02  2.30000000e-01 
 1.67624517e-05  3.26732673e-02  2.30000000e-01 
 1.68624517e-05  3.26732673e-02  2.30000000e-01 
 1.69624517e-05  3.26732673e-02  2.30000000e-01 
 1.70624517e-05  3.26732673e-02  2.30000000e-01 
 1.71624517e-05  3.26732673e-02  2.30000000e-01 
 1.72624517e-05  3.26732673e-02  2.30000000e-01 
 1.73624517e-05  3.26732673e-02  2.30000000e-01 
 1.74624517e-05  3.26732673e-02  2.30000000e-01 
 1.75624517e-05  3.26732673e-02  2.30000000e-01 
 1.76624517e-05  3.26732673e-02  2.30000000e-01 
 1.77624517e-05  3.26732673e-02  2.30000000e-01 
 1.77700000e-05  3.26732673e-02  2.30000000e-01 
 1.77711349e-05  3.22752033e-02  2.24779540e-01 
 1.77734046e-05  3.14860334e-02  2.14338620e-01 
 1.77779442e-05  2.99487197e-02  1.93456780e-01 
 1.77870232e-05  2.70312080e-02  1.51693101e-01 
 1.78051814e-05  2.17728859e-02  6.81657411e-02 
 1.78414976e-05  1.32065503e-02 -9.88889777e-02 
 1.78700000e-05  8.00747576e-03 -2.30000000e-01 
 1.78717670e-05  8.34151226e-03 -2.30000000e-01 
 1.78753011e-05  9.00053790e-03 -2.30000000e-01 
 1.78823692e-05  1.02657555e-02 -2.30000000e-01 
 1.78965054e-05  1.25986076e-02 -2.30000000e-01 
 1.79247777e-05  1.65717419e-02 -2.30000000e-01 
 1.79813225e-05  2.23713762e-02 -2.30000000e-01 
 1.80813225e-05  2.81358693e-02 -2.30000000e-01 
 1.81813225e-05  3.06748012e-02 -2.30000000e-01 
 1.82813225e-05  3.17930565e-02 -2.30000000e-01 
 1.83813225e-05  3.22855844e-02 -2.30000000e-01 
 1.84813225e-05  3.25025150e-02 -2.30000000e-01 
 1.85813225e-05  3.25980606e-02 -2.30000000e-01 
 1.86813225e-05  3.26401430e-02 -2.30000000e-01 
 1.87813225e-05  3.26586780e-02 -2.30000000e-01 
 1.88813225e-05  3.26668415e-02 -2.30000000e-01 
 1.89813225e-05  3.26704371e-02 -2.30000000e-01 
 1.90813225e-05  3.26720208e-02 -2.30000000e-01 
 1.91813225e-05  3.26727183e-02 -2.30000000e-01 
 1.92813225e-05  3.26730255e-02 -2.30000000e-01 
 1.93813225e-05  3.26731608e-02 -2.30000000e-01 
 1.94813225e-05  3.26732204e-02 -2.30000000e-01 
 1.95813225e-05  3.26732467e-02 -2.30000000e-01 
 1.96813225e-05  3.26732582e-02 -2.30000000e-01 
 1.97813225e-05  3.26732633e-02 -2.30000000e-01 
 1.98813225e-05  3.26732656e-02 -2.30000000e-01 
 1.99813225e-05  3.26732665e-02 -2.30000000e-01 
 2.00813225e-05  3.26732670e-02 -2.30000000e-01 
 2.01813225e-05  3.26732672e-02 -2.30000000e-01 
 2.02813225e-05  3.26732673e-02 -2.30000000e-01 
 2.03813225e-05  3.26732673e-02 -2.30000000e-01 
 2.04813225e-05  3.26732673e-02 -2.30000000e-01 
 2.05813225e-05  3.26732673e-02 -2.30000000e-01 
 2.06813225e-05  3.26732673e-02 -2.30000000e-01 
 2.07813225e-05  3.26732673e-02 -2.30000000e-01 
 2.08813225e-05  3.26732673e-02 -2.30000000e-01 
 2.09813225e-05  3.26732673e-02 -2.30000000e-01 
 2.10813225e-05  3.26732673e-02 -2.30000000e-01 
 2.11813225e-05  3.26732673e-02 -2.30000000e-01 
 2.12813225e-05  3.26732673e-02 -2.30000000e-01 
 2.13813225e-05  3.26732673e-02 -2.30000000e-01 
 2.14813225e-05  3.26732673e-02 -2.30000000e-01 
 2.15813225e-05  3.26732673e-02 -2.30000000e-01 
 2.16813225e-05  3.26732673e-02 -2.30000000e-01 
 2.17813225e-05  3.26732673e-02 -2.30000000e-01 
 2.18813225e-05  3.26732673e-02 -2.30000000e-01 
 2.19813225e-05  3.26732673e-02 -2.30000000e-01 
 2.20813225e-05  3.26732673e-02 -2.30000000e-01 
 2.21813225e-05  3.26732673e-02 -2.30000000e-01 
 2.22813225e-05  3.26732673e-02 -2.30000000e-01 
 2.23813225e-05  3.26732673e-02 -2.30000000e-01 
 2.24813225e-05  3.26732673e-02 -2.30000000e-01 
 2.25813225e-05  3.26732673e-02 -2.30000000e-01 
 2.26813225e-05  3.26732673e-02 -2.30000000e-01 
 2.27813225e-05  3.26732673e-02 -2.30000000e-01 
 2.28813225e-05  3.26732673e-02 -2.30000000e-01 
 2.29813225e-05  3.26732673e-02 -2.30000000e-01 
 2.30813225e-05  3.26732673e-02 -2.30000000e-01 
 2.31813225e-05  3.26732673e-02 -2.30000000e-01 
 2.32813225e-05  3.26732673e-02 -2.30000000e-01 
 2.33813225e-05  3.26732673e-02 -2.30000000e-01 
 2.34813225e-05  3.26732673e-02 -2.30000000e-01 
 2.35813225e-05  3.26732673e-02 -2.30000000e-01 
 2.36813225e-05  3.26732673e-02 -2.30000000e-01 
 2.37813225e-05  3.26732673e-02 -2.30000000e-01 
 2.38813225e-05  3.26732673e-02 -2.30000000e-01 
 2.39813225e-05  3.26732673e-02 -2.30000000e-01 
 2.40813225e-05  3.26732673e-02 -2.30000000e-01 
 2.41813225e-05  3.26732673e-02 -2.30000000e-01 
 2.42813225e-05  3.26732673e-02 -2.30000000e-01 
 2.43813225e-05  3.26732673e-02 -2.30000000e-01 
 2.44813225e-05  3.26732673e-02 -2.30000000e-01 
 2.45813225e-05  3.26732673e-02 -2.30000000e-01 
 2.46813225e-05  3.26732673e-02 -2.30000000e-01 
 2.47813225e-05  3.26732673e-02 -2.30000000e-01 
 2.48813225e-05  3.26732673e-02 -2.30000000e-01 
 2.49813225e-05  3.26732673e-02 -2.30000000e-01 
 2.50813225e-05  3.26732673e-02 -2.30000000e-01 
 2.51813225e-05  3.26732673e-02 -2.30000000e-01 
 2.52813225e-05  3.26732673e-02 -2.30000000e-01 
 2.53813225e-05  3.26732673e-02 -2.30000000e-01 
 2.54813225e-05  3.26732673e-02 -2.30000000e-01 
 2.55813225e-05  3.26732673e-02 -2.30000000e-01 
 2.56813225e-05  3.26732673e-02 -2.30000000e-01 
 2.57813225e-05  3.26732673e-02 -2.30000000e-01 
 2.58813225e-05  3.26732673e-02 -2.30000000e-01 
 2.59813225e-05  3.26732673e-02 -2.30000000e-01 
 2.60813225e-05  3.26732673e-02 -2.30000000e-01 
 2.61813225e-05  3.26732673e-02 -2.30000000e-01 
 2.62813225e-05  3.26732673e-02 -2.30000000e-01 
 2.63813225e-05  3.26732673e-02 -2.30000000e-01 
 2.64813225e-05  3.26732673e-02 -2.30000000e-01 
 2.65813225e-05  3.26732673e-02 -2.30000000e-01 
 2.66813225e-05  3.26732673e-02 -2.30000000e-01 
 2.67813225e-05  3.26732673e-02 -2.30000000e-01 
 2.68813225e-05  3.26732673e-02 -2.30000000e-01 
 2.69813225e-05  3.26732673e-02 -2.30000000e-01 
 2.70813225e-05  3.26732673e-02 -2.30000000e-01 
 2.71813225e-05  3.26732673e-02 -2.30000000e-01 
 2.72813225e-05  3.26732673e-02 -2.30000000e-01 
 2.73813225e-05  3.26732673e-02 -2.30000000e-01 
 2.74813225e-05  3.26732673e-02 -2.30000000e-01 
 2.75813225e-05  3.26732673e-02 -2.30000000e-01 
 2.76813225e-05  3.26732673e-02 -2.30000000e-01 
 2.77813225e-05  3.26732673e-02 -2.30000000e-01 
 2.78813225e-05  3.26732673e-02 -2.30000000e-01 
 2.79813225e-05  3.26732673e-02 -2.30000000e-01 
 2.80813225e-05  3.26732673e-02 -2.30000000e-01 
 2.81813225e-05  3.26732673e-02 -2.30000000e-01 
 2.82813225e-05  3.26732673e-02 -2.30000000e-01 
 2.83813225e-05  3.26732673e-02 -2.30000000e-01 
 2.84813225e-05  3.26732673e-02 -2.30000000e-01 
 2.85813225e-05  3.26732673e-02 -2.30000000e-01 
 2.86813225e-05  3.26732673e-02 -2.30000000e-01 
 2.87813225e-05  3.26732673e-02 -2.30000000e-01 
 2.88813225e-05  3.26732673e-02 -2.30000000e-01 
 2.89813225e-05  3.26732673e-02 -2.30000000e-01 
 2.90813225e-05  3.26732673e-02 -2.30000000e-01 
 2.91813225e-05  3.26732673e-02 -2.30000000e-01 
 2.92813225e-05  3.26732673e-02 -2.30000000e-01 
 2.93813225e-05  3.26732673e-02 -2.30000000e-01 
 2.94813225e-05  3.26732673e-02 -2.30000000e-01 
 2.95813225e-05  3.26732673e-02 -2.30000000e-01 
 2.96813225e-05  3.26732673e-02 -2.30000000e-01 
 2.97813225e-05  3.26732673e-02 -2.30000000e-01 
 2.98813225e-05  3.26732673e-02 -2.30000000e-01 
 2.99813225e-05  3.26732673e-02 -2.30000000e-01 
 3.00813225e-05  3.26732673e-02 -2.30000000e-01 
 3.01813225e-05  3.26732673e-02 -2.30000000e-01 
 3.02813225e-05  3.26732673e-02 -2.30000000e-01 
 3.03813225e-05  3.26732673e-02 -2.30000000e-01 
 3.04813225e-05  3.26732673e-02 -2.30000000e-01 
 3.05813225e-05  3.26732673e-02 -2.30000000e-01 
 3.06813225e-05  3.26732673e-02 -2.30000000e-01 
 3.07813225e-05  3.26732673e-02 -2.30000000e-01 
 3.08813225e-05  3.26732673e-02 -2.30000000e-01 
 3.09813225e-05  3.26732673e-02 -2.30000000e-01 
 3.10813225e-05  3.26732673e-02 -2.30000000e-01 
 3.11813225e-05  3.26732673e-02 -2.30000000e-01 
 3.12813225e-05  3.26732673e-02 -2.30000000e-01 
 3.13813225e-05  3.26732673e-02 -2.30000000e-01 
 3.14813225e-05  3.26732673e-02 -2.30000000e-01 
 3.15813225e-05  3.26732673e-02 -2.30000000e-01 
 3.16813225e-05  3.26732673e-02 -2.30000000e-01 
 3.17813225e-05  3.26732673e-02 -2.30000000e-01 
 3.18813225e-05  3.26732673e-02 -2.30000000e-01 
 3.19813225e-05  3.26732673e-02 -2.30000000e-01 
 3.20813225e-05  3.26732673e-02 -2.30000000e-01 
 3.21813225e-05  3.26732673e-02 -2.30000000e-01 
 3.22813225e-05  3.26732673e-02 -2.30000000e-01 
 3.23813225e-05  3.26732673e-02 -2.30000000e-01 
 3.24813225e-05  3.26732673e-02 -2.30000000e-01 
 3.25813225e-05  3.26732673e-02 -2.30000000e-01 
 3.26813225e-05  3.26732673e-02 -2.30000000e-01 
 3.27813225e-05  3.26732673e-02 -2.30000000e-01 
 3.28813225e-05  3.26732673e-02 -2.30000000e-01 
 3.29813225e-05  3.26732673e-02 -2.30000000e-01 
 3.30813225e-05  3.26732673e-02 -2.30000000e-01 
 3.31813225e-05  3.26732673e-02 -2.30000000e-01 
 3.32813225e-05  3.26732673e-02 -2.30000000e-01 
 3.33813225e-05  3.26732673e-02 -2.30000000e-01 
 3.34813225e-05  3.26732673e-02 -2.30000000e-01 
 3.35813225e-05  3.26732673e-02 -2.30000000e-01 
 3.36813225e-05  3.26732673e-02 -2.30000000e-01 
 3.37813225e-05  3.26732673e-02 -2.30000000e-01 
 3.38813225e-05  3.26732673e-02 -2.30000000e-01 
 3.39813225e-05  3.26732673e-02 -2.30000000e-01 
 3.40813225e-05  3.26732673e-02 -2.30000000e-01 
 3.41813225e-05  3.26732673e-02 -2.30000000e-01 
 3.42813225e-05  3.26732673e-02 -2.30000000e-01 
 3.43300000e-05  3.26732673e-02 -2.30000000e-01 
 3.43350515e-05  3.43932119e-02 -2.06763206e-01 
 3.43451544e-05  3.77031972e-02 -1.60289617e-01 
 3.43653603e-05  4.36004699e-02 -6.73424408e-02 
 3.44057722e-05  5.29945171e-02  1.18551913e-01 
 3.44300000e-05  5.73339351e-02  2.30000000e-01 
 3.44322980e-05  5.69013673e-02  2.30000000e-01 
 3.44368941e-05  5.60514069e-02  2.30000000e-01 
 3.44460863e-05  5.44393980e-02  2.30000000e-01 
 3.44644705e-05  5.15377284e-02  2.30000000e-01 
 3.45012391e-05  4.68223462e-02  2.30000000e-01 
 3.45747763e-05  4.05347356e-02  2.30000000e-01 
 3.46747763e-05  3.61357977e-02  2.30000000e-01 
 3.47747763e-05  3.41983153e-02  2.30000000e-01 
 3.48747763e-05  3.33449644e-02  2.30000000e-01 
 3.49747763e-05  3.29691117e-02  2.30000000e-01 
 3.50747763e-05  3.28035700e-02  2.30000000e-01 
 3.51747763e-05  3.27306582e-02  2.30000000e-01 
 3.52747763e-05  3.26985448e-02  2.30000000e-01 
 3.53747763e-05  3.26844006e-02  2.30000000e-01 
 3.54747763e-05  3.26781709e-02  2.30000000e-01 
 3.55747763e-05  3.26754271e-02  2.30000000e-01 
 3.56747763e-05  3.26742186e-02  2.30000000e-01 
 3.57747763e-05  3.26736863e-02  2.30000000e-01 
 3.58747763e-05  3.26734519e-02  2.30000000e-01 
 3.59747763e-05  3.26733486e-02  2.30000000e-01 
 3.60747763e-05  3.26733031e-02  2.30000000e-01 
 3.61747763e-05  3.26732831e-02  2.30000000e-01 
 3.62747763e-05  3.26732743e-02  2.30000000e-01 
 3.63747763e-05  3.26732704e-02  2.30000000e-01 
 3.64747763e-05  3.26732687e-02  2.30000000e-01 
 3.65747763e-05  3.26732679e-02  2.30000000e-01 
