 time            v(V5_FC)        v(HALL_VCC)     v(HALL_OUT_DIV)
 1.00000000e-09  5.00004712e+00  5.00002244e+00  1.66700000e+00 
 2.00000000e-09  5.00009425e+00  5.00005663e+00  1.66699999e+00 
 4.00000000e-09  5.00018849e+00  5.00013733e+00  1.66699998e+00 
 8.00000000e-09  5.00037695e+00  5.00032493e+00  1.66699996e+00 
 1.60000000e-08  5.00075366e+00  5.00070199e+00  1.66699992e+00 
 3.20000000e-08  5.00150542e+00  5.00145373e+00  1.66699984e+00 
 6.40000000e-08  5.00299565e+00  5.00294483e+00  1.66699968e+00 
 1.00000000e-07  5.00463525e+00  5.00458579e+00  1.66699951e+00 
 1.06400000e-07  5.00492113e+00  5.00487194e+00  1.66699948e+00 
 1.19200000e-07  5.00548679e+00  5.00543859e+00  1.66699941e+00 
 1.44800000e-07  5.00659062e+00  5.00654384e+00  1.66699929e+00 
 1.96000000e-07  5.00866358e+00  5.00862110e+00  1.66699905e+00 
 2.96000000e-07  5.01202350e+00  5.01199182e+00  1.66699858e+00 
 3.96000000e-07  5.01420647e+00  5.01418979e+00  1.66699812e+00 
 4.96000000e-07  5.01499882e+00  5.01499772e+00  1.66699767e+00 
 5.96000000e-07  5.01432298e+00  5.01433857e+00  1.66699722e+00 
 6.96000000e-07  5.01224510e+00  5.01227491e+00  1.66699676e+00 
 7.96000000e-07  5.00896860e+00  5.00901061e+00  1.66699630e+00 
 8.96000000e-07  5.00481419e+00  5.00486342e+00  1.66699582e+00 
 9.96000000e-07  5.00018853e+00  5.00024099e+00  1.66699534e+00 
 1.09600000e-06  4.99554442e+00  4.99559418e+00  1.66699484e+00 
 1.19600000e-06  4.99133645e+00  4.99137941e+00  1.66699433e+00 
 1.29600000e-06  4.98797653e+00  4.98800774e+00  1.66699381e+00 
 1.39600000e-06  4.98579354e+00  4.98581066e+00  1.66699328e+00 
 1.49600000e-06  4.98500119e+00  4.98500186e+00  1.66699274e+00 
 1.59600000e-06  4.98567701e+00  4.98566182e+00  1.66699221e+00 
 1.69600000e-06  4.98775487e+00  4.98772468e+00  1.66699168e+00 
 1.79600000e-06  4.99103137e+00  4.99098973e+00  1.66699116e+00 
 1.89600000e-06  4.99518577e+00  4.99513619e+00  1.66699066e+00 
 1.99600000e-06  4.99981143e+00  4.99975930e+00  1.66699016e+00 
 2.09600000e-06  5.00445554e+00  5.00440546e+00  1.66698969e+00 
 2.19600000e-06  5.00866352e+00  5.00862087e+00  1.66698922e+00 
 2.29600000e-06  5.01202345e+00  5.01199194e+00  1.66698877e+00 
 2.39600000e-06  5.01420644e+00  5.01418961e+00  1.66698832e+00 
 2.49600000e-06  5.01499881e+00  5.01499787e+00  1.66698789e+00 
 2.59600000e-06  5.01432300e+00  5.01433845e+00  1.66698745e+00 
 2.69600000e-06  5.01224515e+00  5.01227509e+00  1.66698701e+00 
 2.79600000e-06  5.00896866e+00  5.00901054e+00  1.66698656e+00 
 2.89600000e-06  5.00481426e+00  5.00486362e+00  1.66698610e+00 
 2.99600000e-06  5.00018861e+00  5.00024095e+00  1.66698563e+00 
 3.09600000e-06  4.99554449e+00  4.99559437e+00  1.66698515e+00 
 3.19600000e-06  4.99133651e+00  4.99137936e+00  1.66698465e+00 
 3.29600000e-06  4.98797657e+00  4.98800790e+00  1.66698414e+00 
 3.39600000e-06  4.98579357e+00  4.98581059e+00  1.66698363e+00 
 3.49600000e-06  4.98500119e+00  4.98500196e+00  1.66698311e+00 
 3.59600000e-06  4.98567699e+00  4.98566170e+00  1.66698259e+00 
 3.69600000e-06  4.98775483e+00  4.98772473e+00  1.66698208e+00 
 3.79600000e-06  4.99103130e+00  4.99098958e+00  1.66698157e+00 
 3.89600000e-06  4.99518570e+00  4.99513620e+00  1.66698108e+00 
 3.99600000e-06  4.99981135e+00  4.99975914e+00  1.66698060e+00 
 4.09600000e-06  5.00445547e+00  5.00440545e+00  1.66698013e+00 
 4.19600000e-06  5.00866345e+00  5.00862073e+00  1.66697968e+00 
 4.29600000e-06  5.01202340e+00  5.01199196e+00  1.66697925e+00 
 4.39600000e-06  5.01420642e+00  5.01418952e+00  1.66697882e+00 
 4.49600000e-06  5.01499881e+00  5.01499793e+00  1.66697839e+00 
 4.59600000e-06  5.01432302e+00  5.01433841e+00  1.66697797e+00 
 4.69600000e-06  5.01224520e+00  5.01227520e+00  1.66697754e+00 
 4.79600000e-06  5.00896873e+00  5.00901055e+00  1.66697711e+00 
 4.89600000e-06  5.00481434e+00  5.00486374e+00  1.66697666e+00 
 4.99600000e-06  5.00018869e+00  5.00024098e+00  1.66697621e+00 
 5.09600000e-06  4.99554457e+00  4.99559450e+00  1.66697574e+00 
 5.19600000e-06  4.99133658e+00  4.99137938e+00  1.66697525e+00 
 5.29600000e-06  4.98797662e+00  4.98800799e+00  1.66697476e+00 
 5.39600000e-06  4.98579359e+00  4.98581057e+00  1.66697426e+00 
 5.49600000e-06  4.98500119e+00  4.98500200e+00  1.66697375e+00 
 5.59600000e-06  4.98567697e+00  4.98566164e+00  1.66697325e+00 
 5.69600000e-06  4.98775478e+00  4.98772472e+00  1.66697275e+00 
 5.79600000e-06  4.99103124e+00  4.99098948e+00  1.66697226e+00 
 5.89600000e-06  4.99518562e+00  4.99513616e+00  1.66697178e+00 
 5.99600000e-06  4.99981127e+00  4.99975903e+00  1.66697132e+00 
 6.09600000e-06  5.00445539e+00  5.00440541e+00  1.66697087e+00 
 6.19600000e-06  5.00866339e+00  5.00862064e+00  1.66697043e+00 
 6.29600000e-06  5.01202335e+00  5.01199194e+00  1.66697001e+00 
 6.39600000e-06  5.01420639e+00  5.01418946e+00  1.66696959e+00 
 6.49600000e-06  5.01499881e+00  5.01499795e+00  1.66696918e+00 
 6.59600000e-06  5.01432305e+00  5.01433841e+00  1.66696877e+00 
 6.69600000e-06  5.01224524e+00  5.01227526e+00  1.66696836e+00 
 6.79600000e-06  5.00896879e+00  5.00901059e+00  1.66696794e+00 
 6.89600000e-06  5.00481441e+00  5.00486384e+00  1.66696751e+00 
 6.99600000e-06  5.00018877e+00  5.00024104e+00  1.66696706e+00 
 7.09600000e-06  4.99554465e+00  4.99559459e+00  1.66696661e+00 
 7.19600000e-06  4.99133664e+00  4.99137943e+00  1.66696614e+00 
 7.29600000e-06  4.98797667e+00  4.98800805e+00  1.66696566e+00 
 7.39600000e-06  4.98579362e+00  4.98581058e+00  1.66696517e+00 
 7.49600000e-06  4.98500119e+00  4.98500202e+00  1.66696468e+00 
 7.59600000e-06  4.98567694e+00  4.98566160e+00  1.66696419e+00 
 7.69600000e-06  4.98775473e+00  4.98772469e+00  1.66696370e+00 
 7.79600000e-06  4.99103118e+00  4.99098940e+00  1.66696323e+00 
 7.89600000e-06  4.99518555e+00  4.99513610e+00  1.66696276e+00 
 7.99600000e-06  4.99981119e+00  4.99975894e+00  1.66696231e+00 
 8.09600000e-06  5.00445532e+00  5.00440535e+00  1.66696187e+00 
 8.19600000e-06  5.00866332e+00  5.00862056e+00  1.66696145e+00 
 8.29600000e-06  5.01202331e+00  5.01199190e+00  1.66696104e+00 
 8.39600000e-06  5.01420637e+00  5.01418943e+00  1.66696064e+00 
 8.49600000e-06  5.01499881e+00  5.01499796e+00  1.66696024e+00 
 8.59600000e-06  5.01432307e+00  5.01433843e+00  1.66695984e+00 
 8.69600000e-06  5.01224529e+00  5.01227532e+00  1.66695944e+00 
 8.79600000e-06  5.00896886e+00  5.00901065e+00  1.66695904e+00 
 8.89600000e-06  5.00481449e+00  5.00486393e+00  1.66695862e+00 
 8.99600000e-06  5.00018885e+00  5.00024111e+00  1.66695819e+00 
 9.09600000e-06  4.99554472e+00  4.99559468e+00  1.66695775e+00 
 9.19600000e-06  4.99133671e+00  4.99137949e+00  1.66695729e+00 
 9.29600000e-06  4.98797672e+00  4.98800811e+00  1.66695682e+00 
 9.39600000e-06  4.98579365e+00  4.98581060e+00  1.66695635e+00 
 9.49600000e-06  4.98500119e+00  4.98500202e+00  1.66695587e+00 
 9.59600000e-06  4.98567692e+00  4.98566157e+00  1.66695539e+00 
 9.69600000e-06  4.98775469e+00  4.98772465e+00  1.66695492e+00 
 9.79600000e-06  4.99103111e+00  4.99098933e+00  1.66695446e+00 
 9.89600000e-06  4.99518547e+00  4.99513603e+00  1.66695401e+00 
 9.99600000e-06  4.99981111e+00  4.99975886e+00  1.66695357e+00 
 1.00960000e-05  5.00445524e+00  5.00440527e+00  1.66695314e+00 
 1.01960000e-05  5.00866326e+00  5.00862049e+00  1.66695273e+00 
 1.02960000e-05  5.01202326e+00  5.01199186e+00  1.66695234e+00 
 1.03960000e-05  5.01420634e+00  5.01418940e+00  1.66695195e+00 
 1.04960000e-05  5.01499881e+00  5.01499797e+00  1.66695156e+00 
 1.05960000e-05  5.01432309e+00  5.01433845e+00  1.66695118e+00 
 1.06960000e-05  5.01224533e+00  5.01227537e+00  1.66695079e+00 
 1.07960000e-05  5.00896892e+00  5.00901071e+00  1.66695040e+00 
 1.08960000e-05  5.00481456e+00  5.00486400e+00  1.66694999e+00 
 1.09960000e-05  5.00018893e+00  5.00024119e+00  1.66694958e+00 
 1.10960000e-05  4.99554480e+00  4.99559476e+00  1.66694915e+00 
 1.11960000e-05  4.99133677e+00  4.99137955e+00  1.66694870e+00 
 1.12960000e-05  4.98797676e+00  4.98800816e+00  1.66694825e+00 
 1.13960000e-05  4.98579367e+00  4.98581062e+00  1.66694779e+00 
 1.14960000e-05  4.98500119e+00  4.98500203e+00  1.66694732e+00 
 1.15960000e-05  4.98567689e+00  4.98566155e+00  1.66694686e+00 
 1.16960000e-05  4.98775464e+00  4.98772460e+00  1.66694640e+00 
 1.17960000e-05  4.99103105e+00  4.99098927e+00  1.66694595e+00 
 1.18960000e-05  4.99518540e+00  4.99513595e+00  1.66694551e+00 
 1.19960000e-05  4.99981103e+00  4.99975877e+00  1.66694508e+00 
 1.20960000e-05  5.00445516e+00  5.00440520e+00  1.66694467e+00 
 1.21960000e-05  5.00866319e+00  5.00862042e+00  1.66694428e+00 
 1.22960000e-05  5.01202321e+00  5.01199181e+00  1.66694389e+00 
 1.23960000e-05  5.01420632e+00  5.01418937e+00  1.66694351e+00 
 1.24960000e-05  5.01499881e+00  5.01499797e+00  1.66694314e+00 
 1.25960000e-05  5.01432312e+00  5.01433847e+00  1.66694277e+00 
 1.26960000e-05  5.01224538e+00  5.01227542e+00  1.66694240e+00 
 1.27960000e-05  5.00896898e+00  5.00901077e+00  1.66694202e+00 
 1.28960000e-05  5.00481464e+00  5.00486408e+00  1.66694162e+00 
 1.29960000e-05  5.00018901e+00  5.00024127e+00  1.66694122e+00 
 1.30960000e-05  4.99554487e+00  4.99559483e+00  1.66694080e+00 
 1.31960000e-05  4.99133684e+00  4.99137961e+00  1.66694037e+00 
 1.32960000e-05  4.98797681e+00  4.98800821e+00  1.66693993e+00 
 1.33960000e-05  4.98579370e+00  4.98581065e+00  1.66693948e+00 
 1.34960000e-05  4.98500119e+00  4.98500203e+00  1.66693903e+00 
 1.35960000e-05  4.98567687e+00  4.98566152e+00  1.66693858e+00 
 1.36960000e-05  4.98775460e+00  4.98772456e+00  1.66693813e+00 
 1.37960000e-05  4.99103099e+00  4.99098920e+00  1.66693769e+00 
 1.38960000e-05  4.99518532e+00  4.99513588e+00  1.66693726e+00 
 1.39960000e-05  4.99981095e+00  4.99975869e+00  1.66693685e+00 
 1.40960000e-05  5.00445509e+00  5.00440513e+00  1.66693645e+00 
 1.41960000e-05  5.00866313e+00  5.00862036e+00  1.66693607e+00 
 1.42960000e-05  5.01202316e+00  5.01199177e+00  1.66693569e+00 
 1.43960000e-05  5.01420629e+00  5.01418934e+00  1.66693533e+00 
 1.44960000e-05  5.01499881e+00  5.01499797e+00  1.66693497e+00 
 1.45960000e-05  5.01432314e+00  5.01433849e+00  1.66693461e+00 
 1.46960000e-05  5.01224543e+00  5.01227546e+00  1.66693425e+00 
 1.47960000e-05  5.00896905e+00  5.00901083e+00  1.66693388e+00 
 1.48960000e-05  5.00481472e+00  5.00486416e+00  1.66693350e+00 
 1.49960000e-05  5.00018909e+00  5.00024135e+00  1.66693311e+00 
 1.50960000e-05  4.99554495e+00  4.99559491e+00  1.66693270e+00 
 1.51960000e-05  4.99133690e+00  4.99137968e+00  1.66693229e+00 
 1.52960000e-05  4.98797686e+00  4.98800826e+00  1.66693186e+00 
 1.53960000e-05  4.98579372e+00  4.98581067e+00  1.66693142e+00 
 1.54960000e-05  4.98500119e+00  4.98500203e+00  1.66693098e+00 
 1.55960000e-05  4.98567685e+00  4.98566150e+00  1.66693054e+00 
 1.56960000e-05  4.98775455e+00  4.98772451e+00  1.66693010e+00 
 1.57960000e-05  4.99103092e+00  4.99098914e+00  1.66692968e+00 
 1.58960000e-05  4.99518525e+00  4.99513580e+00  1.66692926e+00 
 1.59960000e-05  4.99981087e+00  4.99975861e+00  1.66692886e+00 
 1.60960000e-05  5.00445501e+00  5.00440505e+00  1.66692847e+00 
 1.61960000e-05  5.00866306e+00  5.00862029e+00  1.66692810e+00 
 1.62960000e-05  5.01202312e+00  5.01199172e+00  1.66692774e+00 
 1.63960000e-05  5.01420627e+00  5.01418932e+00  1.66692739e+00 
 1.64960000e-05  5.01499881e+00  5.01499797e+00  1.66692704e+00 
 1.65960000e-05  5.01432316e+00  5.01433851e+00  1.66692670e+00 
 1.66960000e-05  5.01224547e+00  5.01227551e+00  1.66692635e+00 
 1.67960000e-05  5.00896911e+00  5.00901090e+00  1.66692599e+00 
 1.68960000e-05  5.00481479e+00  5.00486423e+00  1.66692562e+00 
 1.69960000e-05  5.00018917e+00  5.00024143e+00  1.66692524e+00 
 1.70960000e-05  4.99554503e+00  4.99559499e+00  1.66692485e+00 
 1.71960000e-05  4.99133697e+00  4.99137974e+00  1.66692444e+00 
 1.72960000e-05  4.98797691e+00  4.98800830e+00  1.66692402e+00 
 1.73960000e-05  4.98579375e+00  4.98581070e+00  1.66692360e+00 
 1.74960000e-05  4.98500119e+00  4.98500203e+00  1.66692317e+00 
 1.75960000e-05  4.98567682e+00  4.98566147e+00  1.66692274e+00 
 1.76960000e-05  4.98775450e+00  4.98772447e+00  1.66692232e+00 
 1.77960000e-05  4.99103086e+00  4.99098907e+00  1.66692190e+00 
 1.78960000e-05  4.99518517e+00  4.99513573e+00  1.66692150e+00 
 1.79960000e-05  4.99981079e+00  4.99975853e+00  1.66692111e+00 
 1.80960000e-05  5.00445494e+00  5.00440497e+00  1.66692073e+00 
 1.81960000e-05  5.00866300e+00  5.00862023e+00  1.66692037e+00 
 1.82960000e-05  5.01202307e+00  5.01199167e+00  1.66692002e+00 
 1.83960000e-05  5.01420624e+00  5.01418929e+00  1.66691968e+00 
 1.84960000e-05  5.01499881e+00  5.01499796e+00  1.66691935e+00 
 1.85960000e-05  5.01432319e+00  5.01433854e+00  1.66691901e+00 
 1.86960000e-05  5.01224552e+00  5.01227556e+00  1.66691867e+00 
 1.87960000e-05  5.00896917e+00  5.00901096e+00  1.66691833e+00 
 1.88960000e-05  5.00481487e+00  5.00486431e+00  1.66691797e+00 
 1.89960000e-05  5.00018925e+00  5.00024151e+00  1.66691760e+00 
 1.90960000e-05  4.99554510e+00  4.99559506e+00  1.66691722e+00 
 1.91960000e-05  4.99133703e+00  4.99137981e+00  1.66691682e+00 
 1.92960000e-05  4.98797695e+00  4.98800835e+00  1.66691642e+00 
 1.93960000e-05  4.98579377e+00  4.98581072e+00  1.66691601e+00 
 1.94960000e-05  4.98500119e+00  4.98500204e+00  1.66691559e+00 
 1.95960000e-05  4.98567680e+00  4.98566145e+00  1.66691517e+00 
 1.96960000e-05  4.98775446e+00  4.98772442e+00  1.66691476e+00 
 1.97960000e-05  4.99103079e+00  4.99098901e+00  1.66691435e+00 
 1.98960000e-05  4.99518510e+00  4.99513565e+00  1.66691396e+00 
 1.99960000e-05  4.99981071e+00  4.99975845e+00  1.66691358e+00 
 2.00960000e-05  5.00445486e+00  5.00440490e+00  1.66691322e+00 
 2.01960000e-05  5.00866293e+00  5.00862016e+00  1.66691287e+00 
 2.02960000e-05  5.01202302e+00  5.01199162e+00  1.66691253e+00 
 2.03960000e-05  5.01420621e+00  5.01418926e+00  1.66691220e+00 
 2.04960000e-05  5.01499881e+00  5.01499796e+00  1.66691188e+00 
 2.05960000e-05  5.01432321e+00  5.01433856e+00  1.66691156e+00 
 2.06960000e-05  5.01224556e+00  5.01227560e+00  1.66691123e+00 
 2.07960000e-05  5.00896924e+00  5.00901102e+00  1.66691089e+00 
 2.08960000e-05  5.00481494e+00  5.00486438e+00  1.66691055e+00 
 2.09960000e-05  5.00018933e+00  5.00024159e+00  1.66691019e+00 
 2.10960000e-05  4.99554518e+00  4.99559514e+00  1.66690982e+00 
 2.11960000e-05  4.99133710e+00  4.99137987e+00  1.66690943e+00 
 2.12960000e-05  4.98797700e+00  4.98800840e+00  1.66690904e+00 
 2.13960000e-05  4.98579380e+00  4.98581075e+00  1.66690864e+00 
 2.14960000e-05  4.98500120e+00  4.98500204e+00  1.66690823e+00 
 2.15960000e-05  4.98567678e+00  4.98566143e+00  1.66690783e+00 
 2.16960000e-05  4.98775441e+00  4.98772438e+00  1.66690742e+00 
 2.17960000e-05  4.99103073e+00  4.99098895e+00  1.66690703e+00 
 2.18960000e-05  4.99518502e+00  4.99513558e+00  1.66690665e+00 
 2.19960000e-05  4.99981063e+00  4.99975837e+00  1.66690628e+00 
 2.20960000e-05  5.00445478e+00  5.00440482e+00  1.66690593e+00 
 2.21960000e-05  5.00866287e+00  5.00862010e+00  1.66690559e+00 
 2.22960000e-05  5.01202297e+00  5.01199158e+00  1.66690526e+00 
 2.23960000e-05  5.01420619e+00  5.01418924e+00  1.66690494e+00 
 2.24960000e-05  5.01499880e+00  5.01499796e+00  1.66690463e+00 
 2.25960000e-05  5.01432324e+00  5.01433858e+00  1.66690432e+00 
 2.26960000e-05  5.01224561e+00  5.01227565e+00  1.66690400e+00 
 2.27960000e-05  5.00896930e+00  5.00901109e+00  1.66690368e+00 
 2.28960000e-05  5.00481502e+00  5.00486446e+00  1.66690334e+00 
 2.29960000e-05  5.00018941e+00  5.00024167e+00  1.66690300e+00 
 2.30960000e-05  4.99554525e+00  4.99559522e+00  1.66690264e+00 
 2.31960000e-05  4.99133716e+00  4.99137994e+00  1.66690226e+00 
 2.32960000e-05  4.98797705e+00  4.98800845e+00  1.66690188e+00 
 2.33960000e-05  4.98579382e+00  4.98581077e+00  1.66690149e+00 
 2.34960000e-05  4.98500120e+00  4.98500204e+00  1.66690109e+00 
 2.35960000e-05  4.98567675e+00  4.98566140e+00  1.66690070e+00 
 2.36960000e-05  4.98775437e+00  4.98772433e+00  1.66690031e+00 
 2.37960000e-05  4.99103067e+00  4.99098888e+00  1.66689992e+00 
 2.38960000e-05  4.99518495e+00  4.99513550e+00  1.66689955e+00 
 2.39960000e-05  4.99981055e+00  4.99975829e+00  1.66689920e+00 
 2.40960000e-05  5.00445471e+00  5.00440475e+00  1.66689885e+00 
 2.41960000e-05  5.00866280e+00  5.00862003e+00  1.66689853e+00 
 2.42960000e-05  5.01202293e+00  5.01199153e+00  1.66689821e+00 
 2.43960000e-05  5.01420616e+00  5.01418921e+00  1.66689790e+00 
 2.44960000e-05  5.01499880e+00  5.01499796e+00  1.66689760e+00 
 2.45960000e-05  5.01432326e+00  5.01433861e+00  1.66689730e+00 
 2.46960000e-05  5.01224566e+00  5.01227569e+00  1.66689699e+00 
 2.47960000e-05  5.00896937e+00  5.00901115e+00  1.66689668e+00 
 2.48960000e-05  5.00481509e+00  5.00486453e+00  1.66689635e+00 
 2.49960000e-05  5.00018949e+00  5.00024175e+00  1.66689602e+00 
 2.50960000e-05  4.99554533e+00  4.99559529e+00  1.66689567e+00 
 2.51960000e-05  4.99133723e+00  4.99138000e+00  1.66689530e+00 
 2.52960000e-05  4.98797710e+00  4.98800850e+00  1.66689493e+00 
 2.53960000e-05  4.98579385e+00  4.98581080e+00  1.66689455e+00 
 2.54960000e-05  4.98500120e+00  4.98500204e+00  1.66689416e+00 
 2.55960000e-05  4.98567673e+00  4.98566138e+00  1.66689378e+00 
 2.56960000e-05  4.98775432e+00  4.98772428e+00  1.66689340e+00 
 2.57960000e-05  4.99103060e+00  4.99098882e+00  1.66689303e+00 
 2.58960000e-05  4.99518487e+00  4.99513543e+00  1.66689267e+00 
 2.59960000e-05  4.99981047e+00  4.99975822e+00  1.66689232e+00 
 2.60960000e-05  5.00445463e+00  5.00440467e+00  1.66689199e+00 
 2.61960000e-05  5.00866274e+00  5.00861997e+00  1.66689167e+00 
 2.62960000e-05  5.01202288e+00  5.01199148e+00  1.66689136e+00 
 2.63960000e-05  5.01420614e+00  5.01418919e+00  1.66689107e+00 
 2.64960000e-05  5.01499880e+00  5.01499796e+00  1.66689077e+00 
 2.65960000e-05  5.01432328e+00  5.01433863e+00  1.66689048e+00 
 2.66960000e-05  5.01224570e+00  5.01227574e+00  1.66689019e+00 
 2.67960000e-05  5.00896943e+00  5.00901121e+00  1.66688988e+00 
 2.68960000e-05  5.00481517e+00  5.00486461e+00  1.66688957e+00 
 2.69960000e-05  5.00018957e+00  5.00024182e+00  1.66688924e+00 
 2.70960000e-05  4.99554541e+00  4.99559537e+00  1.66688890e+00 
 2.71960000e-05  4.99133729e+00  4.99138007e+00  1.66688855e+00 
 2.72960000e-05  4.98797714e+00  4.98800854e+00  1.66688819e+00 
 2.73960000e-05  4.98579388e+00  4.98581083e+00  1.66688782e+00 
 2.74960000e-05  4.98500120e+00  4.98500204e+00  1.66688744e+00 
 2.75960000e-05  4.98567671e+00  4.98566136e+00  1.66688707e+00 
 2.76960000e-05  4.98775427e+00  4.98772424e+00  1.66688669e+00 
 2.77960000e-05  4.99103054e+00  4.99098875e+00  1.66688633e+00 
 2.78960000e-05  4.99518479e+00  4.99513535e+00  1.66688598e+00 
 2.79960000e-05  4.99981040e+00  4.99975814e+00  1.66688565e+00 
 2.80960000e-05  5.00445456e+00  5.00440459e+00  1.66688532e+00 
 2.81960000e-05  5.00866267e+00  5.00861990e+00  1.66688502e+00 
 2.82960000e-05  5.01202283e+00  5.01199143e+00  1.66688472e+00 
 2.83960000e-05  5.01420611e+00  5.01418916e+00  1.66688443e+00 
 2.84960000e-05  5.01499880e+00  5.01499796e+00  1.66688415e+00 
 2.85960000e-05  5.01432331e+00  5.01433865e+00  1.66688387e+00 
 2.86960000e-05  5.01224575e+00  5.01227578e+00  1.66688358e+00 
 2.87960000e-05  5.00896949e+00  5.00901128e+00  1.66688329e+00 
 2.88960000e-05  5.00481524e+00  5.00486468e+00  1.66688299e+00 
 2.89960000e-05  5.00018964e+00  5.00024190e+00  1.66688267e+00 
 2.90960000e-05  4.99554548e+00  4.99559544e+00  1.66688234e+00 
 2.91960000e-05  4.99133736e+00  4.99138013e+00  1.66688200e+00 
 2.92960000e-05  4.98797719e+00  4.98800859e+00  1.66688164e+00 
 2.93960000e-05  4.98579390e+00  4.98581085e+00  1.66688128e+00 
 2.94960000e-05  4.98500120e+00  4.98500204e+00  1.66688092e+00 
 2.95960000e-05  4.98567668e+00  4.98566133e+00  1.66688055e+00 
