 time            v(VBUS)         v(INA)         
 1.00000000e-09  2.52000471e+01  1.57466046e+00 
 2.00000000e-09  2.52000942e+01  1.57466340e+00 
 4.00000000e-09  2.52001885e+01  1.57466929e+00 
 8.00000000e-09  2.52003770e+01  1.57468107e+00 
 1.60000000e-08  2.52007537e+01  1.57470461e+00 
 3.20000000e-08  2.52015054e+01  1.57475158e+00 
 6.40000000e-08  2.52029956e+01  1.57484470e+00 
 1.00000000e-07  2.52046353e+01  1.57494715e+00 
 1.06400000e-07  2.52049211e+01  1.57496502e+00 
 1.19200000e-07  2.52054868e+01  1.57500036e+00 
 1.44800000e-07  2.52065906e+01  1.57506934e+00 
 1.96000000e-07  2.52086636e+01  1.57519887e+00 
 2.96000000e-07  2.52120235e+01  1.57540882e+00 
 3.96000000e-07  2.52142065e+01  1.57554522e+00 
 4.96000000e-07  2.52149988e+01  1.57559473e+00 
 5.96000000e-07  2.52143230e+01  1.57555250e+00 
 6.96000000e-07  2.52122451e+01  1.57542266e+00 
 7.96000000e-07  2.52089686e+01  1.57521793e+00 
 8.96000000e-07  2.52048142e+01  1.57495833e+00 
 9.96000000e-07  2.52001885e+01  1.57466929e+00 
 1.09600000e-06  2.51955444e+01  1.57437910e+00 
 1.19600000e-06  2.51913364e+01  1.57411616e+00 
 1.29600000e-06  2.51879765e+01  1.57390621e+00 
 1.39600000e-06  2.51857935e+01  1.57376980e+00 
 1.49600000e-06  2.51850012e+01  1.57372029e+00 
 1.59600000e-06  2.51856770e+01  1.57376252e+00 
 1.69600000e-06  2.51877549e+01  1.57389236e+00 
 1.79600000e-06  2.51910314e+01  1.57409709e+00 
 1.89600000e-06  2.51951858e+01  1.57435669e+00 
 1.99600000e-06  2.51998114e+01  1.57464573e+00 
 2.09600000e-06  2.52044555e+01  1.57493592e+00 
 2.19600000e-06  2.52086635e+01  1.57519886e+00 
 2.29600000e-06  2.52120235e+01  1.57540881e+00 
 2.39600000e-06  2.52142064e+01  1.57554522e+00 
 2.49600000e-06  2.52149988e+01  1.57559473e+00 
 2.59600000e-06  2.52143230e+01  1.57555250e+00 
 2.69600000e-06  2.52122452e+01  1.57542267e+00 
 2.79600000e-06  2.52089687e+01  1.57521793e+00 
 2.89600000e-06  2.52048143e+01  1.57495834e+00 
 2.99600000e-06  2.52001886e+01  1.57466930e+00 
 3.09600000e-06  2.51955445e+01  1.57437910e+00 
 3.19600000e-06  2.51913365e+01  1.57411616e+00 
 3.29600000e-06  2.51879766e+01  1.57390621e+00 
 3.39600000e-06  2.51857936e+01  1.57376980e+00 
 3.49600000e-06  2.51850012e+01  1.57372029e+00 
 3.59600000e-06  2.51856770e+01  1.57376252e+00 
 3.69600000e-06  2.51877548e+01  1.57389236e+00 
 3.79600000e-06  2.51910313e+01  1.57409709e+00 
 3.89600000e-06  2.51951857e+01  1.57435668e+00 
 3.99600000e-06  2.51998114e+01  1.57464572e+00 
 4.09600000e-06  2.52044555e+01  1.57493592e+00 
 4.19600000e-06  2.52086635e+01  1.57519886e+00 
 4.29600000e-06  2.52120234e+01  1.57540881e+00 
 4.39600000e-06  2.52142064e+01  1.57554522e+00 
 4.49600000e-06  2.52149988e+01  1.57559473e+00 
 4.59600000e-06  2.52143230e+01  1.57555251e+00 
 4.69600000e-06  2.52122452e+01  1.57542267e+00 
 4.79600000e-06  2.52089687e+01  1.57521794e+00 
 4.89600000e-06  2.52048143e+01  1.57495834e+00 
 4.99600000e-06  2.52001887e+01  1.57466930e+00 
 5.09600000e-06  2.51955446e+01  1.57437911e+00 
 5.19600000e-06  2.51913366e+01  1.57411617e+00 
 5.29600000e-06  2.51879766e+01  1.57390621e+00 
 5.39600000e-06  2.51857936e+01  1.57376980e+00 
 5.49600000e-06  2.51850012e+01  1.57372029e+00 
 5.59600000e-06  2.51856770e+01  1.57376252e+00 
 5.69600000e-06  2.51877548e+01  1.57389235e+00 
 5.79600000e-06  2.51910312e+01  1.57409709e+00 
 5.89600000e-06  2.51951856e+01  1.57435668e+00 
 5.99600000e-06  2.51998113e+01  1.57464572e+00 
 6.09600000e-06  2.52044554e+01  1.57493591e+00 
 6.19600000e-06  2.52086634e+01  1.57519886e+00 
 6.29600000e-06  2.52120234e+01  1.57540881e+00 
 6.39600000e-06  2.52142064e+01  1.57554522e+00 
 6.49600000e-06  2.52149988e+01  1.57559473e+00 
 6.59600000e-06  2.52143230e+01  1.57555251e+00 
 6.69600000e-06  2.52122452e+01  1.57542267e+00 
 6.79600000e-06  2.52089688e+01  1.57521794e+00 
 6.89600000e-06  2.52048144e+01  1.57495835e+00 
 6.99600000e-06  2.52001888e+01  1.57466931e+00 
 7.09600000e-06  2.51955446e+01  1.57437911e+00 
 7.19600000e-06  2.51913366e+01  1.57411617e+00 
 7.29600000e-06  2.51879767e+01  1.57390622e+00 
 7.39600000e-06  2.51857936e+01  1.57376981e+00 
 7.49600000e-06  2.51850012e+01  1.57372029e+00 
 7.59600000e-06  2.51856769e+01  1.57376252e+00 
 7.69600000e-06  2.51877547e+01  1.57389235e+00 
 7.79600000e-06  2.51910312e+01  1.57409708e+00 
 7.89600000e-06  2.51951855e+01  1.57435667e+00 
 7.99600000e-06  2.51998112e+01  1.57464571e+00 
 8.09600000e-06  2.52044553e+01  1.57493591e+00 
 8.19600000e-06  2.52086633e+01  1.57519885e+00 
 8.29600000e-06  2.52120233e+01  1.57540881e+00 
 8.39600000e-06  2.52142064e+01  1.57554522e+00 
 8.49600000e-06  2.52149988e+01  1.57559473e+00 
 8.59600000e-06  2.52143231e+01  1.57555251e+00 
 8.69600000e-06  2.52122453e+01  1.57542268e+00 
 8.79600000e-06  2.52089689e+01  1.57521794e+00 
 8.89600000e-06  2.52048145e+01  1.57495835e+00 
 8.99600000e-06  2.52001888e+01  1.57466931e+00 
 9.09600000e-06  2.51955447e+01  1.57437912e+00 
 9.19600000e-06  2.51913367e+01  1.57411617e+00 
 9.29600000e-06  2.51879767e+01  1.57390622e+00 
 9.39600000e-06  2.51857936e+01  1.57376981e+00 
 9.49600000e-06  2.51850012e+01  1.57372029e+00 
 9.59600000e-06  2.51856769e+01  1.57376251e+00 
 9.69600000e-06  2.51877547e+01  1.57389235e+00 
 9.79600000e-06  2.51910311e+01  1.57409708e+00 
 9.89600000e-06  2.51951855e+01  1.57435667e+00 
 9.99600000e-06  2.51998111e+01  1.57464571e+00 
 1.00960000e-05  2.52044552e+01  1.57493590e+00 
 1.01960000e-05  2.52086633e+01  1.57519885e+00 
 1.02960000e-05  2.52120233e+01  1.57540880e+00 
 1.03960000e-05  2.52142063e+01  1.57554522e+00 
 1.04960000e-05  2.52149988e+01  1.57559473e+00 
 1.05960000e-05  2.52143231e+01  1.57555251e+00 
 1.06960000e-05  2.52122453e+01  1.57542268e+00 
 1.07960000e-05  2.52089689e+01  1.57521795e+00 
 1.08960000e-05  2.52048146e+01  1.57495836e+00 
 1.09960000e-05  2.52001889e+01  1.57466932e+00 
 1.10960000e-05  2.51955448e+01  1.57437912e+00 
 1.11960000e-05  2.51913368e+01  1.57411618e+00 
 1.12960000e-05  2.51879768e+01  1.57390622e+00 
 1.13960000e-05  2.51857937e+01  1.57376981e+00 
 1.14960000e-05  2.51850012e+01  1.57372029e+00 
 1.15960000e-05  2.51856769e+01  1.57376251e+00 
 1.16960000e-05  2.51877546e+01  1.57389234e+00 
 1.17960000e-05  2.51910310e+01  1.57409707e+00 
 1.18960000e-05  2.51951854e+01  1.57435666e+00 
 1.19960000e-05  2.51998110e+01  1.57464570e+00 
 1.20960000e-05  2.52044552e+01  1.57493590e+00 
 1.21960000e-05  2.52086632e+01  1.57519884e+00 
 1.22960000e-05  2.52120232e+01  1.57540880e+00 
 1.23960000e-05  2.52142063e+01  1.57554521e+00 
 1.24960000e-05  2.52149988e+01  1.57559473e+00 
 1.25960000e-05  2.52143231e+01  1.57555251e+00 
 1.26960000e-05  2.52122454e+01  1.57542268e+00 
 1.27960000e-05  2.52089690e+01  1.57521795e+00 
 1.28960000e-05  2.52048146e+01  1.57495836e+00 
 1.29960000e-05  2.52001890e+01  1.57466932e+00 
 1.30960000e-05  2.51955449e+01  1.57437913e+00 
 1.31960000e-05  2.51913368e+01  1.57411618e+00 
 1.32960000e-05  2.51879768e+01  1.57390623e+00 
 1.33960000e-05  2.51857937e+01  1.57376981e+00 
 1.34960000e-05  2.51850012e+01  1.57372029e+00 
 1.35960000e-05  2.51856769e+01  1.57376251e+00 
 1.36960000e-05  2.51877546e+01  1.57389234e+00 
 1.37960000e-05  2.51910310e+01  1.57409707e+00 
 1.38960000e-05  2.51951853e+01  1.57435666e+00 
 1.39960000e-05  2.51998110e+01  1.57464570e+00 
 1.40960000e-05  2.52044551e+01  1.57493589e+00 
 1.41960000e-05  2.52086631e+01  1.57519884e+00 
 1.42960000e-05  2.52120232e+01  1.57540880e+00 
 1.43960000e-05  2.52142063e+01  1.57554521e+00 
 1.44960000e-05  2.52149988e+01  1.57559473e+00 
 1.45960000e-05  2.52143231e+01  1.57555251e+00 
 1.46960000e-05  2.52122454e+01  1.57542268e+00 
 1.47960000e-05  2.52089690e+01  1.57521796e+00 
 1.48960000e-05  2.52048147e+01  1.57495837e+00 
 1.49960000e-05  2.52001891e+01  1.57466933e+00 
 1.50960000e-05  2.51955450e+01  1.57437913e+00 
 1.51960000e-05  2.51913369e+01  1.57411619e+00 
 1.52960000e-05  2.51879769e+01  1.57390623e+00 
 1.53960000e-05  2.51857937e+01  1.57376981e+00 
 1.54960000e-05  2.51850012e+01  1.57372029e+00 
 1.55960000e-05  2.51856768e+01  1.57376251e+00 
 1.56960000e-05  2.51877546e+01  1.57389234e+00 
 1.57960000e-05  2.51910309e+01  1.57409707e+00 
 1.58960000e-05  2.51951852e+01  1.57435666e+00 
 1.59960000e-05  2.51998109e+01  1.57464569e+00 
 1.60960000e-05  2.52044550e+01  1.57493589e+00 
 1.61960000e-05  2.52086631e+01  1.57519884e+00 
 1.62960000e-05  2.52120231e+01  1.57540879e+00 
 1.63960000e-05  2.52142063e+01  1.57554521e+00 
 1.64960000e-05  2.52149988e+01  1.57559473e+00 
 1.65960000e-05  2.52143232e+01  1.57555252e+00 
 1.66960000e-05  2.52122455e+01  1.57542269e+00 
 1.67960000e-05  2.52089691e+01  1.57521796e+00 
 1.68960000e-05  2.52048148e+01  1.57495837e+00 
 1.69960000e-05  2.52001892e+01  1.57466933e+00 
 1.70960000e-05  2.51955450e+01  1.57437914e+00 
 1.71960000e-05  2.51913370e+01  1.57411619e+00 
 1.72960000e-05  2.51879769e+01  1.57390623e+00 
 1.73960000e-05  2.51857937e+01  1.57376981e+00 
 1.74960000e-05  2.51850012e+01  1.57372029e+00 
 1.75960000e-05  2.51856768e+01  1.57376251e+00 
 1.76960000e-05  2.51877545e+01  1.57389233e+00 
 1.77960000e-05  2.51910309e+01  1.57409706e+00 
 1.78960000e-05  2.51951852e+01  1.57435665e+00 
 1.79960000e-05  2.51998108e+01  1.57464569e+00 
 1.80960000e-05  2.52044549e+01  1.57493588e+00 
 1.81960000e-05  2.52086630e+01  1.57519883e+00 
 1.82960000e-05  2.52120231e+01  1.57540879e+00 
 1.83960000e-05  2.52142062e+01  1.57554521e+00 
 1.84960000e-05  2.52149988e+01  1.57559473e+00 
 1.85960000e-05  2.52143232e+01  1.57555252e+00 
 1.86960000e-05  2.52122455e+01  1.57542269e+00 
 1.87960000e-05  2.52089692e+01  1.57521796e+00 
 1.88960000e-05  2.52048149e+01  1.57495838e+00 
 1.89960000e-05  2.52001892e+01  1.57466934e+00 
 1.90960000e-05  2.51955451e+01  1.57437914e+00 
 1.91960000e-05  2.51913370e+01  1.57411619e+00 
 1.92960000e-05  2.51879770e+01  1.57390624e+00 
 1.93960000e-05  2.51857938e+01  1.57376982e+00 
 1.94960000e-05  2.51850012e+01  1.57372029e+00 
 1.95960000e-05  2.51856768e+01  1.57376251e+00 
 1.96960000e-05  2.51877545e+01  1.57389233e+00 
 1.97960000e-05  2.51910308e+01  1.57409706e+00 
 1.98960000e-05  2.51951851e+01  1.57435665e+00 
 1.99960000e-05  2.51998107e+01  1.57464568e+00 
 2.00960000e-05  2.52044549e+01  1.57493588e+00 
 2.01960000e-05  2.52086629e+01  1.57519883e+00 
 2.02960000e-05  2.52120230e+01  1.57540879e+00 
 2.03960000e-05  2.52142062e+01  1.57554521e+00 
 2.04960000e-05  2.52149988e+01  1.57559473e+00 
 2.05960000e-05  2.52143232e+01  1.57555252e+00 
 2.06960000e-05  2.52122456e+01  1.57542269e+00 
 2.07960000e-05  2.52089692e+01  1.57521797e+00 
 2.08960000e-05  2.52048149e+01  1.57495838e+00 
 2.09960000e-05  2.52001893e+01  1.57466934e+00 
 2.10960000e-05  2.51955452e+01  1.57437915e+00 
 2.11960000e-05  2.51913371e+01  1.57411620e+00 
 2.12960000e-05  2.51879770e+01  1.57390624e+00 
 2.13960000e-05  2.51857938e+01  1.57376982e+00 
 2.14960000e-05  2.51850012e+01  1.57372029e+00 
 2.15960000e-05  2.51856768e+01  1.57376251e+00 
 2.16960000e-05  2.51877544e+01  1.57389233e+00 
 2.17960000e-05  2.51910307e+01  1.57409705e+00 
 2.18960000e-05  2.51951850e+01  1.57435664e+00 
 2.19960000e-05  2.51998106e+01  1.57464568e+00 
 2.20960000e-05  2.52044548e+01  1.57493588e+00 
 2.21960000e-05  2.52086629e+01  1.57519882e+00 
 2.22960000e-05  2.52120230e+01  1.57540878e+00 
 2.23960000e-05  2.52142062e+01  1.57554521e+00 
 2.24960000e-05  2.52149988e+01  1.57559473e+00 
 2.25960000e-05  2.52143232e+01  1.57555252e+00 
 2.26960000e-05  2.52122456e+01  1.57542270e+00 
 2.27960000e-05  2.52089693e+01  1.57521797e+00 
 2.28960000e-05  2.52048150e+01  1.57495839e+00 
 2.29960000e-05  2.52001894e+01  1.57466935e+00 
 2.30960000e-05  2.51955453e+01  1.57437915e+00 
 2.31960000e-05  2.51913372e+01  1.57411620e+00 
 2.32960000e-05  2.51879770e+01  1.57390624e+00 
 2.33960000e-05  2.51857938e+01  1.57376982e+00 
 2.34960000e-05  2.51850012e+01  1.57372029e+00 
 2.35960000e-05  2.51856768e+01  1.57376250e+00 
 2.36960000e-05  2.51877544e+01  1.57389233e+00 
 2.37960000e-05  2.51910307e+01  1.57409705e+00 
 2.38960000e-05  2.51951849e+01  1.57435664e+00 
 2.39960000e-05  2.51998106e+01  1.57464567e+00 
 2.40960000e-05  2.52044547e+01  1.57493587e+00 
 2.41960000e-05  2.52086628e+01  1.57519882e+00 
 2.42960000e-05  2.52120229e+01  1.57540878e+00 
 2.43960000e-05  2.52142062e+01  1.57554520e+00 
 2.44960000e-05  2.52149988e+01  1.57559473e+00 
 2.45960000e-05  2.52143233e+01  1.57555252e+00 
 2.46960000e-05  2.52122457e+01  1.57542270e+00 
 2.47960000e-05  2.52089694e+01  1.57521798e+00 
 2.48960000e-05  2.52048151e+01  1.57495839e+00 
 2.49960000e-05  2.52001895e+01  1.57466935e+00 
 2.50960000e-05  2.51955453e+01  1.57437916e+00 
 2.51960000e-05  2.51913372e+01  1.57411621e+00 
 2.52960000e-05  2.51879771e+01  1.57390624e+00 
 2.53960000e-05  2.51857938e+01  1.57376982e+00 
 2.54960000e-05  2.51850012e+01  1.57372029e+00 
 2.55960000e-05  2.51856767e+01  1.57376250e+00 
 2.56960000e-05  2.51877543e+01  1.57389232e+00 
 2.57960000e-05  2.51910306e+01  1.57409705e+00 
 2.58960000e-05  2.51951849e+01  1.57435663e+00 
 2.59960000e-05  2.51998105e+01  1.57464567e+00 
 2.60960000e-05  2.52044546e+01  1.57493587e+00 
 2.61960000e-05  2.52086627e+01  1.57519882e+00 
 2.62960000e-05  2.52120229e+01  1.57540878e+00 
 2.63960000e-05  2.52142061e+01  1.57554520e+00 
 2.64960000e-05  2.52149988e+01  1.57559473e+00 
 2.65960000e-05  2.52143233e+01  1.57555252e+00 
 2.66960000e-05  2.52122457e+01  1.57542270e+00 
 2.67960000e-05  2.52089694e+01  1.57521798e+00 
 2.68960000e-05  2.52048152e+01  1.57495839e+00 
 2.69960000e-05  2.52001896e+01  1.57466936e+00 
 2.70960000e-05  2.51955454e+01  1.57437916e+00 
 2.71960000e-05  2.51913373e+01  1.57411621e+00 
 2.72960000e-05  2.51879771e+01  1.57390625e+00 
 2.73960000e-05  2.51857939e+01  1.57376982e+00 
 2.74960000e-05  2.51850012e+01  1.57372029e+00 
 2.75960000e-05  2.51856767e+01  1.57376250e+00 
 2.76960000e-05  2.51877543e+01  1.57389232e+00 
 2.77960000e-05  2.51910305e+01  1.57409704e+00 
 2.78960000e-05  2.51951848e+01  1.57435663e+00 
 2.79960000e-05  2.51998104e+01  1.57464566e+00 
 2.80960000e-05  2.52044546e+01  1.57493586e+00 
 2.81960000e-05  2.52086627e+01  1.57519881e+00 
 2.82960000e-05  2.52120228e+01  1.57540878e+00 
 2.83960000e-05  2.52142061e+01  1.57554520e+00 
 2.84960000e-05  2.52149988e+01  1.57559473e+00 
 2.85960000e-05  2.52143233e+01  1.57555252e+00 
 2.86960000e-05  2.52122457e+01  1.57542270e+00 
 2.87960000e-05  2.52089695e+01  1.57521798e+00 
 2.88960000e-05  2.52048152e+01  1.57495840e+00 
 2.89960000e-05  2.52001896e+01  1.57466936e+00 
 2.90960000e-05  2.51955455e+01  1.57437917e+00 
 2.91960000e-05  2.51913374e+01  1.57411621e+00 
 2.92960000e-05  2.51879772e+01  1.57390625e+00 
 2.93960000e-05  2.51857939e+01  1.57376982e+00 
 2.94960000e-05  2.51850012e+01  1.57372029e+00 
 2.95960000e-05  2.51856767e+01  1.57376250e+00 
 2.96960000e-05  2.51877542e+01  1.57389232e+00 
 2.97960000e-05  2.51910305e+01  1.57409704e+00 
 2.98960000e-05  2.51951847e+01  1.57435662e+00 
 2.99960000e-05  2.51998103e+01  1.57464566e+00 
 3.00960000e-05  2.52044545e+01  1.57493586e+00 
 3.01960000e-05  2.52086626e+01  1.57519881e+00 
 3.02960000e-05  2.52120228e+01  1.57540877e+00 
 3.03960000e-05  2.52142061e+01  1.57554520e+00 
 3.04960000e-05  2.52149988e+01  1.57559473e+00 
 3.05960000e-05  2.52143233e+01  1.57555253e+00 
 3.06960000e-05  2.52122458e+01  1.57542271e+00 
 3.07960000e-05  2.52089696e+01  1.57521799e+00 
 3.08960000e-05  2.52048153e+01  1.57495840e+00 
 3.09960000e-05  2.52001897e+01  1.57466937e+00 
 3.10960000e-05  2.51955456e+01  1.57437917e+00 
 3.11960000e-05  2.51913374e+01  1.57411622e+00 
 3.12960000e-05  2.51879772e+01  1.57390625e+00 
 3.13960000e-05  2.51857939e+01  1.57376983e+00 
 3.14960000e-05  2.51850012e+01  1.57372029e+00 
 3.15960000e-05  2.51856767e+01  1.57376250e+00 
 3.16960000e-05  2.51877542e+01  1.57389231e+00 
 3.17960000e-05  2.51910304e+01  1.57409703e+00 
 3.18960000e-05  2.51951846e+01  1.57435662e+00 
 3.19960000e-05  2.51998102e+01  1.57464565e+00 
 3.20960000e-05  2.52044544e+01  1.57493585e+00 
 3.21960000e-05  2.52086625e+01  1.57519880e+00 
 3.22960000e-05  2.52120227e+01  1.57540877e+00 
 3.23960000e-05  2.52142061e+01  1.57554520e+00 
 3.24960000e-05  2.52149988e+01  1.57559473e+00 
 3.25960000e-05  2.52143234e+01  1.57555253e+00 
 3.26960000e-05  2.52122458e+01  1.57542271e+00 
 3.27960000e-05  2.52089696e+01  1.57521799e+00 
 3.28960000e-05  2.52048154e+01  1.57495841e+00 
 3.29960000e-05  2.52001898e+01  1.57466937e+00 
 3.30960000e-05  2.51955456e+01  1.57437917e+00 
 3.31960000e-05  2.51913375e+01  1.57411622e+00 
 3.32960000e-05  2.51879773e+01  1.57390626e+00 
 3.33960000e-05  2.51857940e+01  1.57376983e+00 
 3.34960000e-05  2.51850012e+01  1.57372029e+00 
 3.35960000e-05  2.51856766e+01  1.57376250e+00 
 3.36960000e-05  2.51877541e+01  1.57389231e+00 
 3.37960000e-05  2.51910303e+01  1.57409703e+00 
 3.38960000e-05  2.51951846e+01  1.57435661e+00 
 3.39960000e-05  2.51998102e+01  1.57464565e+00 
 3.40960000e-05  2.52044543e+01  1.57493585e+00 
 3.41960000e-05  2.52086625e+01  1.57519880e+00 
 3.42960000e-05  2.52120227e+01  1.57540877e+00 
 3.43960000e-05  2.52142060e+01  1.57554520e+00 
 3.44960000e-05  2.52149988e+01  1.57559473e+00 
 3.45960000e-05  2.52143234e+01  1.57555253e+00 
 3.46960000e-05  2.52122459e+01  1.57542271e+00 
 3.47960000e-05  2.52089697e+01  1.57521800e+00 
 3.48960000e-05  2.52048155e+01  1.57495841e+00 
 3.49960000e-05  2.52001899e+01  1.57466938e+00 
 3.50960000e-05  2.51955457e+01  1.57437918e+00 
 3.51960000e-05  2.51913376e+01  1.57411623e+00 
 3.52960000e-05  2.51879773e+01  1.57390626e+00 
 3.53960000e-05  2.51857940e+01  1.57376983e+00 
 3.54960000e-05  2.51850012e+01  1.57372029e+00 
 3.55960000e-05  2.51856766e+01  1.57376249e+00 
 3.56960000e-05  2.51877541e+01  1.57389231e+00 
 3.57960000e-05  2.51910303e+01  1.57409703e+00 
 3.58960000e-05  2.51951845e+01  1.57435661e+00 
 3.59960000e-05  2.51998101e+01  1.57464564e+00 
 3.60960000e-05  2.52044543e+01  1.57493584e+00 
 3.61960000e-05  2.52086624e+01  1.57519880e+00 
 3.62960000e-05  2.52120226e+01  1.57540876e+00 
 3.63960000e-05  2.52142060e+01  1.57554519e+00 
 3.64960000e-05  2.52149988e+01  1.57559473e+00 
 3.65960000e-05  2.52143234e+01  1.57555253e+00 
 3.66960000e-05  2.52122459e+01  1.57542272e+00 
 3.67960000e-05  2.52089697e+01  1.57521800e+00 
 3.68960000e-05  2.52048155e+01  1.57495842e+00 
 3.69960000e-05  2.52001900e+01  1.57466938e+00 
 3.70960000e-05  2.51955458e+01  1.57437918e+00 
 3.71960000e-05  2.51913376e+01  1.57411623e+00 
 3.72960000e-05  2.51879774e+01  1.57390626e+00 
 3.73960000e-05  2.51857940e+01  1.57376983e+00 
 3.74960000e-05  2.51850012e+01  1.57372029e+00 
 3.75960000e-05  2.51856766e+01  1.57376249e+00 
 3.76960000e-05  2.51877540e+01  1.57389231e+00 
 3.77960000e-05  2.51910302e+01  1.57409702e+00 
 3.78960000e-05  2.51951844e+01  1.57435660e+00 
 3.79960000e-05  2.51998100e+01  1.57464564e+00 
 3.80960000e-05  2.52044542e+01  1.57493584e+00 
 3.81960000e-05  2.52086623e+01  1.57519879e+00 
 3.82960000e-05  2.52120226e+01  1.57540876e+00 
 3.83960000e-05  2.52142060e+01  1.57554519e+00 
 3.84960000e-05  2.52149988e+01  1.57559473e+00 
 3.85960000e-05  2.52143234e+01  1.57555253e+00 
 3.86960000e-05  2.52122460e+01  1.57542272e+00 
 3.87960000e-05  2.52089698e+01  1.57521800e+00 
 3.88960000e-05  2.52048156e+01  1.57495842e+00 
 3.89960000e-05  2.52001900e+01  1.57466939e+00 
 3.90960000e-05  2.51955459e+01  1.57437919e+00 
 3.91960000e-05  2.51913377e+01  1.57411623e+00 
 3.92960000e-05  2.51879774e+01  1.57390626e+00 
 3.93960000e-05  2.51857940e+01  1.57376983e+00 
 3.94960000e-05  2.51850012e+01  1.57372029e+00 
 3.95960000e-05  2.51856766e+01  1.57376249e+00 
 3.96960000e-05  2.51877540e+01  1.57389230e+00 
